 (000.000000)  can0  135   [8]  B9 75 AD 12 3C E3 A9 15
 (000.000063)  can0  135   [8]  B9 75 AD 12 3C E3 A9 15
 (000.200150)  can0  622   [8]  1E 46 43 7A 15 91 DF 3E
 (000.000052)  can0  622   [8]  1E 46 43 7A 15 91 DF 3E
 (000.200181)  can0  0CA   [8]  FE 13 54 06 F7 4A 68 13
 (000.000053)  can0  0CA   [8]  FE 13 54 06 F7 4A 68 13
 (000.200039)  can0  567   [6]  C9 1D 22 48 AF 34
 (000.000051)  can0  567   [6]  C9 1D 22 48 AF 34
 (000.200108)  can0  577   [8]  4B 18 08 6B 56 23 EA 3C
 (000.000046)  can0  577   [8]  4B 18 08 6B 56 23 EA 3C
 (000.200029)  can0  1AB   [4]  03 6A A5 2F
 (000.000049)  can0  1AB   [4]  03 6A A5 2F
 (000.200160)  can0  341   [8]  F4 BF 9B 6C E7 FC 7E 63
 (000.000051)  can0  341   [8]  F4 BF 9B 6C E7 FC 7E 63
 (000.200065)  can0  3A0   [7]  86 2F 49 69 D5 C4 BD
 (000.000049)  can0  3A0   [7]  86 2F 49 69 D5 C4 BD
 (000.200140)  can0  256   [8]  11 A8 67 15 78 90 83 04
 (000.000057)  can0  256   [8]  11 A8 67 15 78 90 83 04
 (000.199968)  can0  369   [8]  8E 21 63 43 33 84 05 7B
 (000.000029)  can0  369   [8]  8E 21 63 43 33 84 05 7B
 (000.200071)  can0  74C   [8]  2A CF 6D 0E B4 BC D8 65
 (000.000027)  can0  74C   [8]  2A CF 6D 0E B4 BC D8 65
 (000.200012)  can0  002   [4]  63 F1 67 5C
 (000.000028)  can0  002   [4]  63 F1 67 5C
 (000.200239)  can0  27F   [8]  D0 F8 40 59 2A 0C E9 6E
 (000.000053)  can0  27F   [8]  D0 F8 40 59 2A 0C E9 6E
 (000.199999)  can0  012   [3]  E6 A5 3C
 (000.000053)  can0  012   [3]  E6 A5 3C
 (000.200147)  can0  26B   [8]  3A 08 B1 7B 0B 7E D4 38
 (000.000046)  can0  26B   [8]  3A 08 B1 7B 0B 7E D4 38
 (000.200098)  can0  711   [1]  E0
 (000.000048)  can0  711   [1]  E0
 (000.200110)  can0  500   [2]  DF 39
 (000.000049)  can0  500   [2]  DF 39
 (000.200198)  can0  121   [8]  9D 6C 35 48 6E 70 43 39
 (000.000057)  can0  121   [8]  9D 6C 35 48 6E 70 43 39
 (000.200076)  can0  0FA   [7]  22 2D 1C 1F FC F0 55
 (000.000049)  can0  0FA   [7]  22 2D 1C 1F FC F0 55
 (000.200067)  can0  0BB   [5]  76 C6 AC 18 3B
 (000.000057)  can0  0BB   [5]  76 C6 AC 18 3B
 (000.200086)  can0  033   [7]  65 77 B3 14 45 48 E8
 (000.000048)  can0  033   [7]  65 77 B3 14 45 48 E8
 (000.200118)  can0  21A   [8]  98 53 1A 7E 86 E4 FB 6B
 (000.000049)  can0  21A   [8]  98 53 1A 7E 86 E4 FB 6B
 (000.200011)  can0  325   [3]  91 62 D0
 (000.000053)  can0  325   [3]  91 62 D0
 (000.200024)  can0  394   [2]  9D CB
 (000.000040)  can0  394   [2]  9D CB
 (000.200240)  can0  064   [8]  FE 58 E6 0C 85 69 01 09
 (000.000051)  can0  064   [8]  FE 58 E6 0C 85 69 01 09
 (000.200193)  can0  0EA   [8]  F3 D9 44 42 E4 F1 36 1B
 (000.000093)  can0  0EA   [8]  F3 D9 44 42 E4 F1 36 1B
 (000.199854)  can0  162   [5]  E1 E2 8C 17 1E
 (000.000032)  can0  162   [5]  E1 E2 8C 17 1E
 (000.200104)  can0  59A   [7]  59 95 BC 7E CD 4D D9
 (000.000035)  can0  59A   [7]  59 95 BC 7E CD 4D D9
 (000.200082)  can0  09E   [8]  12 96 C1 05 B9 8A FB 1C
 (000.000031)  can0  09E   [8]  12 96 C1 05 B9 8A FB 1C
 (000.200175)  can0  20A   [8]  3F 6F F7 08 2F AD 28 1D
 (000.000059)  can0  20A   [8]  3F 6F F7 08 2F AD 28 1D
 (000.199909)  can0  57E   [0] 
 (000.000052)  can0  57E   [0] 
 (000.200179)  can0  742   [3]  A6 49 23
 (000.000069)  can0  742   [3]  A6 49 23
 (000.200090)  can0  080   [4]  2C 71 88 3F
 (000.000062)  can0  080   [4]  2C 71 88 3F
 (000.200117)  can0  03F   [8]  4F F3 FF 4F A2 69 E4 29
 (000.000050)  can0  03F   [8]  4F F3 FF 4F A2 69 E4 29
 (000.199930)  can0  235   [0] 
 (000.000052)  can0  235   [0] 
 (000.200244)  can0  788   [8]  9D C5 EC 5F 26 E8 ED 39
 (000.000066)  can0  788   [8]  9D C5 EC 5F 26 E8 ED 39
 (000.200061)  can0  5D7   [8]  DF 72 E9 56 E1 5F 63 0E
 (000.000055)  can0  5D7   [8]  DF 72 E9 56 E1 5F 63 0E
 (000.200058)  can0  55A   [8]  11 0D 8C 2B D8 8A 31 67
 (000.000049)  can0  55A   [8]  11 0D 8C 2B D8 8A 31 67
 (000.200099)  can0  3EF   [7]  EA 63 9E 43 31 2B D3
 (000.000060)  can0  3EF   [7]  EA 63 9E 43 31 2B D3
 (000.199965)  can0  77A   [1]  D8
 (000.000055)  can0  77A   [1]  D8
 (000.200108)  can0  035   [4]  66 19 5A 4F
 (000.000051)  can0  035   [4]  66 19 5A 4F
 (000.200132)  can0  723   [5]  17 22 D5 30 58
 (000.000060)  can0  723   [5]  17 22 D5 30 58
 (000.200116)  can0  2E6   [7]  28 B9 F1 33 6E 62 AD
 (000.000053)  can0  2E6   [7]  28 B9 F1 33 6E 62 AD
 (000.200048)  can0  6F0   [5]  94 4A 9B 58 C7
 (000.000059)  can0  6F0   [5]  94 4A 9B 58 C7
 (000.200063)  can0  274   [4]  A9 74 A5 58
 (000.000061)  can0  274   [4]  A9 74 A5 58
 (000.200118)  can0  792   [8]  A7 AA 48 4A 81 53 0E 1D
 (000.000050)  can0  792   [8]  A7 AA 48 4A 81 53 0E 1D
 (000.199994)  can0  631   [2]  B3 7E
 (000.000059)  can0  631   [2]  B3 7E
 (000.200181)  can0  423   [8]  A6 ED 02 7D 58 0C 74 76
 (000.000054)  can0  423   [8]  A6 ED 02 7D 58 0C 74 76
 (000.200076)  can0  58F   [8]  CD C4 64 7D B2 44 CE 24
 (000.000054)  can0  58F   [8]  CD C4 64 7D B2 44 CE 24
 (000.200023)  can0  3C2   [4]  0B 86 AC 18
 (000.000057)  can0  3C2   [4]  0B 86 AC 18
 (000.200063)  can0  4BB   [3]  16 59 4B
 (000.000057)  can0  4BB   [3]  16 59 4B
 (000.200171)  can0  5F8   [8]  73 90 66 61 6C 98 09 5A
 (000.000058)  can0  5F8   [8]  73 90 66 61 6C 98 09 5A
 (000.200082)  can0  11E   [8]  3B B8 20 3D B1 00 D1 28
 (000.000057)  can0  11E   [8]  3B B8 20 3D B1 00 D1 28
 (000.200086)  can0  6D6   [3]  32 54 DF
 (000.000060)  can0  6D6   [3]  32 54 DF
 (000.200018)  can0  175   [5]  B2 BA 8D 4B 98
 (000.000057)  can0  175   [5]  B2 BA 8D 4B 98
 (000.200115)  can0  470   [8]  F0 39 6D 79 FF D9 1A 15
 (000.000050)  can0  470   [8]  F0 39 6D 79 FF D9 1A 15
 (000.200099)  can0  765   [8]  B2 1E E9 39 27 C3 A4 00
 (000.000059)  can0  765   [8]  B2 1E E9 39 27 C3 A4 00
 (000.200089)  can0  5A2   [8]  CF B9 42 73 5E 82 F1 06
 (000.000064)  can0  5A2   [8]  CF B9 42 73 5E 82 F1 06
 (000.199996)  can0  3F0   [5]  09 FE 15 1E E8
 (000.000054)  can0  3F0   [5]  09 FE 15 1E E8
 (000.200155)  can0  690   [8]  54 3A BA 59 AE 17 E0 07
 (000.000056)  can0  690   [8]  54 3A BA 59 AE 17 E0 07
 (000.199908)  can0  398   [0] 
 (000.000049)  can0  398   [0] 
 (000.200168)  can0  573   [2]  75 FF
 (000.000053)  can0  573   [2]  75 FF
 (000.200164)  can0  777   [8]  80 F4 8D 36 E8 C3 4D 73
 (000.000049)  can0  777   [8]  80 F4 8D 36 E8 C3 4D 73
 (000.199952)  can0  281   [0] 
 (000.000053)  can0  281   [0] 
 (000.200223)  can0  52E   [8]  0E D5 92 0A D1 12 D9 4B
 (000.000050)  can0  52E   [8]  0E D5 92 0A D1 12 D9 4B
 (000.200170)  can0  156   [8]  2F 95 CA 52 46 45 1B 34
 (000.000073)  can0  156   [8]  2F 95 CA 52 46 45 1B 34
 (000.200081)  can0  1C3   [8]  2E E7 CB 33 53 58 D8 70
 (000.000050)  can0  1C3   [8]  2E E7 CB 33 53 58 D8 70
 (000.200001)  can0  1B5   [3]  01 70 B8
 (000.000051)  can0  1B5   [3]  01 70 B8
 (000.200113)  can0  413   [1]  BC
 (000.000046)  can0  413   [1]  BC
 (000.200108)  can0  4F3   [1]  6E
 (000.000056)  can0  4F3   [1]  6E
 (000.200208)  can0  159   [8]  52 F8 98 05 DA EB FD 23
 (000.000055)  can0  159   [8]  52 F8 98 05 DA EB FD 23
 (000.200085)  can0  35E   [8]  C1 FD EB 2D 8D 80 90 03
 (000.000052)  can0  35E   [8]  C1 FD EB 2D 8D 80 90 03
 (000.200076)  can0  2D3   [8]  5E 93 69 4F 2A B4 3A 65
 (000.000052)  can0  2D3   [8]  5E 93 69 4F 2A B4 3A 65
 (000.200095)  can0  1AC   [8]  70 F9 55 19 6F 03 B8 38
 (000.000049)  can0  1AC   [8]  70 F9 55 19 6F 03 B8 38
 (000.200100)  can0  3C5   [8]  C2 5B 90 29 7A DD 71 03
 (000.000049)  can0  3C5   [8]  C2 5B 90 29 7A DD 71 03
 (000.200020)  can0  222   [4]  C8 92 57 2D
 (000.000050)  can0  222   [4]  C8 92 57 2D
 (000.200089)  can0  425   [4]  BB 7F AE 41
 (000.000052)  can0  425   [4]  BB 7F AE 41
 (000.200167)  can0  1B5   [8]  82 7D F7 7D 0F BB 8E 00
 (000.000050)  can0  1B5   [8]  82 7D F7 7D 0F BB 8E 00
 (000.200027)  can0  517   [5]  E9 A6 8C 24 75
 (000.000049)  can0  517   [5]  E9 A6 8C 24 75
 (000.200148)  can0  40F   [8]  02 A9 04 45 E2 5E E5 61
 (000.000051)  can0  40F   [8]  02 A9 04 45 E2 5E E5 61
 (000.199937)  can0  779   [0] 
 (000.000051)  can0  779   [0] 
 (000.200230)  can0  4ED   [8]  95 DC 03 7A B3 20 B7 49
 (000.000050)  can0  4ED   [8]  95 DC 03 7A B3 20 B7 49
 (000.200141)  can0  51C   [8]  2D FE 28 4D 3E EF 3F 08
 (000.000078)  can0  51C   [8]  2D FE 28 4D 3E EF 3F 08
 (000.199964)  can0  41C   [5]  73 05 49 07 41
 (000.000056)  can0  41C   [5]  73 05 49 07 41
 (000.200115)  can0  379   [8]  59 A1 3B 7D 2F 25 15 1B
 (000.000051)  can0  379   [8]  59 A1 3B 7D 2F 25 15 1B
 (000.200080)  can0  557   [8]  3E E0 A3 1B 6E 0A 91 65
 (000.000050)  can0  557   [8]  3E E0 A3 1B 6E 0A 91 65
 (000.200050)  can0  4B0   [7]  E3 32 05 27 BF A0 55
 (000.000055)  can0  4B0   [7]  E3 32 05 27 BF A0 55
 (000.200068)  can0  3D2   [6]  A2 FF 3A 72 4B A3
 (000.000048)  can0  3D2   [6]  A2 FF 3A 72 4B A3
 (000.200122)  can0  046   [8]  71 7C EC 5E 34 7D 1A 37
 (000.000060)  can0  046   [8]  71 7C EC 5E 34 7D 1A 37
 (000.200062)  can0  72B   [7]  E7 9D D1 00 47 0C 69
 (000.000056)  can0  72B   [7]  E7 9D D1 00 47 0C 69
 (000.200021)  can0  15F   [4]  85 FB A8 4F
 (000.000055)  can0  15F   [4]  85 FB A8 4F
 (000.200143)  can0  50A   [8]  BC ED F0 53 83 20 FF 11
 (000.000054)  can0  50A   [8]  BC ED F0 53 83 20 FF 11
 (000.200063)  can0  626   [5]  B2 45 14 2D 7D
 (000.000069)  can0  626   [5]  B2 45 14 2D 7D
 (000.199952)  can0  5F0   [0] 
 (000.000054)  can0  5F0   [0] 
 (000.200213)  can0  518   [8]  60 E3 78 5B EA D8 91 1B
 (000.000052)  can0  518   [8]  60 E3 78 5B EA D8 91 1B
 (000.199972)  can0  4B5   [2]  35 7C
 (000.000050)  can0  4B5   [2]  35 7C
 (000.200175)  can0  5B1   [7]  2F 6A FC 50 DC 14 E0
 (000.000052)  can0  5B1   [7]  2F 6A FC 50 DC 14 E0
 (000.200052)  can0  1AE   [6]  24 21 49 68 0D E3
 (000.000050)  can0  1AE   [6]  24 21 49 68 0D E3
 (000.200114)  can0  42B   [8]  88 78 F5 2F 35 D1 43 68
 (000.000051)  can0  42B   [8]  88 78 F5 2F 35 D1 43 68
 (000.200010)  can0  5A2   [4]  B8 F1 42 7A
 (000.000051)  can0  5A2   [4]  B8 F1 42 7A
 (000.200169)  can0  559   [8]  46 5F 97 4F 49 A3 72 21
 (000.000056)  can0  559   [8]  46 5F 97 4F 49 A3 72 21
 (000.199965)  can0  55B   [1]  EA
 (000.000055)  can0  55B   [1]  EA
 (000.200171)  can0  600   [8]  5D E3 89 14 B5 F2 BB 1C
 (000.000050)  can0  600   [8]  5D E3 89 14 B5 F2 BB 1C
 (000.200002)  can0  44D   [3]  B1 DF 9D
 (000.000050)  can0  44D   [3]  B1 DF 9D
 (000.200031)  can0  03A   [0] 
 (000.000056)  can0  03A   [0] 
 (000.200214)  can0  1F7   [8]  F5 8C 7E 44 22 F6 30 79
 (000.000051)  can0  1F7   [8]  F5 8C 7E 44 22 F6 30 79
 (000.200123)  can0  4A8   [8]  57 C7 74 61 4A 12 D1 6C
 (000.000060)  can0  4A8   [8]  57 C7 74 61 4A 12 D1 6C
 (000.199991)  can0  3C1   [8]  13 B6 9E 1B 1A 61 6D 4D
 (000.000033)  can0  3C1   [8]  13 B6 9E 1B 1A 61 6D 4D
 (000.200064)  can0  07A   [8]  63 04 E0 6E D6 4D 1E 73
 (000.000034)  can0  07A   [8]  63 04 E0 6E D6 4D 1E 73
 (000.200061)  can0  28A   [8]  49 58 16 6C 8B 58 7A 44
 (000.000037)  can0  28A   [8]  49 58 16 6C 8B 58 7A 44
 (000.200123)  can0  399   [7]  40 4B 36 61 E6 5F 47
 (000.000050)  can0  399   [7]  40 4B 36 61 E6 5F 47
 (000.199955)  can0  33A   [1]  E5
 (000.000049)  can0  33A   [1]  E5
 (000.200036)  can0  4D2   [0] 
 (000.000051)  can0  4D2   [0] 
 (000.200110)  can0  0BF   [1]  EB
 (000.000057)  can0  0BF   [1]  EB
 (000.200092)  can0  7CE   [2]  B2 97
 (000.000064)  can0  7CE   [2]  B2 97
 (000.200189)  can0  551   [5]  A9 FC DC 09 CC
 (000.000051)  can0  551   [5]  A9 FC DC 09 CC
 (000.200116)  can0  31E   [8]  A2 7B 61 25 A8 9D 80 4C
 (000.000053)  can0  31E   [8]  A2 7B 61 25 A8 9D 80 4C
 (000.200088)  can0  35A   [8]  33 F6 FA 10 F3 9E B7 77
 (000.000052)  can0  35A   [8]  33 F6 FA 10 F3 9E B7 77
 (000.199989)  can0  792   [4]  DA FE FE 30
 (000.000053)  can0  792   [4]  DA FE FE 30
 (000.200134)  can0  465   [8]  40 9E AC 14 37 E1 73 29
 (000.000056)  can0  465   [8]  40 9E AC 14 37 E1 73 29
 (000.200096)  can0  17F   [8]  00 A8 4A 22 3E 4A A8 54
 (000.000058)  can0  17F   [8]  00 A8 4A 22 3E 4A A8 54
 (000.200069)  can0  5ED   [8]  A5 CF 5A 6C BB 95 85 33
 (000.000059)  can0  5ED   [8]  A5 CF 5A 6C BB 95 85 33
 (000.200067)  can0  12D   [7]  4A 31 F5 6F 7F 26 03
 (000.000062)  can0  12D   [7]  4A 31 F5 6F 7F 26 03
 (000.199968)  can0  51C   [3]  4B 54 46
 (000.000052)  can0  51C   [3]  4B 54 46
 (000.200171)  can0  700   [8]  E3 B5 D9 68 5A 1A C2 46
 (000.000056)  can0  700   [8]  E3 B5 D9 68 5A 1A C2 46
 (000.200056)  can0  3D8   [6]  4E B9 79 3E 6B B3
 (000.000055)  can0  3D8   [6]  4E B9 79 3E 6B B3
 (000.200110)  can0  58A   [8]  37 5E AC 72 F0 59 0B 76
 (000.000061)  can0  58A   [8]  37 5E AC 72 F0 59 0B 76
 (000.200061)  can0  0E7   [8]  27 3B 7F 1F 66 72 73 11
 (000.000056)  can0  0E7   [8]  27 3B 7F 1F 66 72 73 11
 (000.200068)  can0  014   [8]  A4 BC 1B 66 02 9E 98 16
 (000.000051)  can0  014   [8]  A4 BC 1B 66 02 9E 98 16
 (000.200074)  can0  013   [8]  BD 33 1E 4A 41 31 EB 3D
 (000.000056)  can0  013   [8]  BD 33 1E 4A 41 31 EB 3D
 (000.200081)  can0  3A1   [8]  C0 57 EE 54 BD A8 55 54
 (000.000056)  can0  3A1   [8]  C0 57 EE 54 BD A8 55 54
 (000.200084)  can0  2FB   [8]  F8 C0 AE 70 FB C1 74 26
 (000.000062)  can0  2FB   [8]  F8 C0 AE 70 FB C1 74 26
 (000.200074)  can0  3F8   [8]  56 DC 36 6D D0 1F FC 0C
 (000.000061)  can0  3F8   [8]  56 DC 36 6D D0 1F FC 0C
 (000.199971)  can0  2F1   [4]  3B D3 33 1F
 (000.000054)  can0  2F1   [4]  3B D3 33 1F
 (000.200044)  can0  5CC   [3]  6C 6A 6E
 (000.000058)  can0  5CC   [3]  6C 6A 6E
 (000.200073)  can0  5EB   [3]  19 79 2D
 (000.000056)  can0  5EB   [3]  19 79 2D
 (000.200161)  can0  0BB   [8]  01 04 FA 56 CF D0 D3 6C
 (000.000054)  can0  0BB   [8]  01 04 FA 56 CF D0 D3 6C
 (000.200081)  can0  206   [8]  10 02 BF 2A A7 B5 14 1F
 (000.000058)  can0  206   [8]  10 02 BF 2A A7 B5 14 1F
 (000.199908)  can0  4C7   [0] 
 (000.000052)  can0  4C7   [0] 
 (000.200247)  can0  5DB   [8]  BE F1 85 35 D3 81 BE 2A
 (000.000061)  can0  5DB   [8]  BE F1 85 35 D3 81 BE 2A
 (000.199985)  can0  638   [4]  A3 A1 BA 37
 (000.000062)  can0  638   [4]  A3 A1 BA 37
 (000.200216)  can0  3B8   [8]  A5 C9 61 50 84 B1 96 69
 (000.000073)  can0  3B8   [8]  A5 C9 61 50 84 B1 96 69
 (000.199838)  can0  652   [1]  37
 (000.000029)  can0  652   [1]  37
 (000.200037)  can0  1A5   [0] 
 (000.000032)  can0  1A5   [0] 
 (000.200204)  can0  70D   [8]  2F 33 49 5E 13 29 87 03
 (000.000033)  can0  70D   [8]  2F 33 49 5E 13 29 87 03
 (000.200170)  can0  5FD   [8]  BB DE 9B 22 C4 12 A7 15
 (000.000055)  can0  5FD   [8]  BB DE 9B 22 C4 12 A7 15
 (000.199921)  can0  70F   [0] 
 (000.000053)  can0  70F   [0] 
 (000.200142)  can0  47D   [4]  BD 16 56 51
 (000.000051)  can0  47D   [4]  BD 16 56 51
 (000.200020)  can0  258   [1]  DE
 (000.000051)  can0  258   [1]  DE
 (000.200149)  can0  540   [4]  94 17 FF 34
 (000.000056)  can0  540   [4]  94 17 FF 34
 (000.200137)  can0  195   [8]  CF A7 D5 4A 3A 83 AF 79
 (000.000058)  can0  195   [8]  CF A7 D5 4A 3A 83 AF 79
 (000.200071)  can0  11B   [8]  9B E5 24 6B 28 68 95 76
 (000.000057)  can0  11B   [8]  9B E5 24 6B 28 68 95 76
 (000.200070)  can0  049   [8]  3C 91 1C 7A 46 96 1D 61
 (000.000051)  can0  049   [8]  3C 91 1C 7A 46 96 1D 61
 (000.200051)  can0  60A   [7]  0A A9 C4 76 19 DD 2B
 (000.000050)  can0  60A   [7]  0A A9 C4 76 19 DD 2B
 (000.199978)  can0  517   [1]  04
 (000.000052)  can0  517   [1]  04
 (000.200102)  can0  7D5   [1]  49
 (000.000056)  can0  7D5   [1]  49
 (000.200188)  can0  122   [7]  3E 88 1E 3E 62 6E 29
 (000.000055)  can0  122   [7]  3E 88 1E 3E 62 6E 29
 (000.200015)  can0  5AB   [3]  F4 41 F7
 (000.000060)  can0  5AB   [3]  F4 41 F7
 (000.200039)  can0  79E   [3]  7B 4A 21
 (000.000056)  can0  79E   [3]  7B 4A 21
 (000.200123)  can0  3CF   [6]  E2 D8 D0 68 18 EC
 (000.000053)  can0  3CF   [6]  E2 D8 D0 68 18 EC
 (000.200107)  can0  0E1   [8]  5F 82 CB 64 EB 96 2A 66
 (000.000054)  can0  0E1   [8]  5F 82 CB 64 EB 96 2A 66
 (000.200092)  can0  215   [8]  04 74 56 41 2C 87 64 32
 (000.000061)  can0  215   [8]  04 74 56 41 2C 87 64 32
 (000.200077)  can0  6FA   [8]  C0 90 42 5F D0 36 C8 6C
 (000.000061)  can0  6FA   [8]  C0 90 42 5F D0 36 C8 6C
 (000.200043)  can0  6CA   [8]  FE 58 7E 5F EC AF 5D 72
 (000.000053)  can0  6CA   [8]  FE 58 7E 5F EC AF 5D 72
 (000.200067)  can0  531   [8]  4F 1E 87 2E DC 52 C0 37
 (000.000056)  can0  531   [8]  4F 1E 87 2E DC 52 C0 37
 (000.199973)  can0  10F   [3]  1D 1A 32
 (000.000051)  can0  10F   [3]  1D 1A 32
 (000.200167)  can0  207   [8]  68 61 63 26 D6 15 57 60
 (000.000054)  can0  207   [8]  68 61 63 26 D6 15 57 60
 (000.200074)  can0  4AF   [8]  EE 01 05 64 90 DD 4D 5A
 (000.000057)  can0  4AF   [8]  EE 01 05 64 90 DD 4D 5A
 (000.200156)  can0  469   [8]  7B 74 78 40 7E 7E C7 71
 (000.000053)  can0  469   [8]  7B 74 78 40 7E 7E C7 71
 (000.199865)  can0  7B7   [0] 
 (000.000060)  can0  7B7   [0] 
 (000.200218)  can0  688   [8]  81 FD 35 08 52 3D 1C 5B
 (000.000056)  can0  688   [8]  81 FD 35 08 52 3D 1C 5B
 (000.200083)  can0  375   [8]  3F ED 79 4D A6 58 90 38
 (000.000057)  can0  375   [8]  3F ED 79 4D A6 58 90 38
 (000.200084)  can0  7BC   [8]  82 AB 50 70 CB B8 0B 16
 (000.000063)  can0  7BC   [8]  82 AB 50 70 CB B8 0B 16
 (000.199905)  can0  3D1   [0] 
 (000.000052)  can0  3D1   [0] 
 (000.200098)  can0  239   [1]  AE
 (000.000051)  can0  239   [1]  AE
 (000.200198)  can0  52C   [8]  79 9C BD 2A 95 E9 EC 71
 (000.000052)  can0  52C   [8]  79 9C BD 2A 95 E9 EC 71
 (000.200011)  can0  1EA   [4]  13 68 B4 63
 (000.000061)  can0  1EA   [4]  13 68 B4 63
 (000.200234)  can0  174   [8]  53 C8 C5 7F FD C7 ED 31
 (000.000064)  can0  174   [8]  53 C8 C5 7F FD C7 ED 31
 (000.199877)  can0  42A   [4]  4F 05 0A 0D
 (000.000035)  can0  42A   [4]  4F 05 0A 0D
 (000.200142)  can0  454   [8]  45 80 2F 0B 10 54 01 75
 (000.000032)  can0  454   [8]  45 80 2F 0B 10 54 01 75
 (000.200046)  can0  61C   [7]  DB 0C 0D 0B EE 69 04
 (000.000034)  can0  61C   [7]  DB 0C 0D 0B EE 69 04
 (000.200114)  can0  167   [5]  C6 1F CF 38 A0
 (000.000060)  can0  167   [5]  C6 1F CF 38 A0
 (000.200053)  can0  136   [5]  89 DA 48 63 62
 (000.000055)  can0  136   [5]  89 DA 48 63 62
 (000.200023)  can0  112   [2]  F7 EF
 (000.000057)  can0  112   [2]  F7 EF
 (000.200206)  can0  7F6   [8]  9E 0C 67 67 6B 81 41 66
 (000.000067)  can0  7F6   [8]  9E 0C 67 67 6B 81 41 66
 (000.199940)  can0  5C9   [1]  68
 (000.000061)  can0  5C9   [1]  68
 (000.200169)  can0  2C5   [7]  92 F1 12 01 19 B7 D8
 (000.000066)  can0  2C5   [7]  92 F1 12 01 19 B7 D8
 (000.200049)  can0  146   [7]  29 0B DA 53 62 3F 42
 (000.000058)  can0  146   [7]  29 0B DA 53 62 3F 42
 (000.200025)  can0  59F   [5]  50 A9 46 5C 06
 (000.000057)  can0  59F   [5]  50 A9 46 5C 06
 (000.200122)  can0  65A   [7]  A7 AA 9E 23 90 8F FF
 (000.000063)  can0  65A   [7]  A7 AA 9E 23 90 8F FF
 (000.199926)  can0  48C   [0] 
 (000.000055)  can0  48C   [0] 
 (000.200207)  can0  432   [8]  9A 78 2D 27 28 84 2A 0E
 (000.000057)  can0  432   [8]  9A 78 2D 27 28 84 2A 0E
 (000.200072)  can0  5F5   [8]  93 05 6C 74 BF A3 9B 35
 (000.000061)  can0  5F5   [8]  93 05 6C 74 BF A3 9B 35
 (000.200148)  can0  229   [8]  B2 6D 0F 64 EF F4 E9 64
 (000.000054)  can0  229   [8]  B2 6D 0F 64 EF F4 E9 64
 (000.199959)  can0  5B3   [5]  08 AC C2 43 F9
 (000.000065)  can0  5B3   [5]  08 AC C2 43 F9
 (000.200025)  can0  11C   [2]  5B 1E
 (000.000067)  can0  11C   [2]  5B 1E
 (000.200165)  can0  737   [8]  C2 FD EC 09 91 9D AB 2A
 (000.000070)  can0  737   [8]  C2 FD EC 09 91 9D AB 2A
 (000.200076)  can0  0C3   [8]  21 2D AB 24 4F 45 37 5A
 (000.000067)  can0  0C3   [8]  21 2D AB 24 4F 45 37 5A
 (000.199977)  can0  599   [4]  ED B2 55 7E
 (000.000051)  can0  599   [4]  ED B2 55 7E
 (000.200136)  can0  0FF   [7]  F3 AD 8B 57 F4 26 F7
 (000.000058)  can0  0FF   [7]  F3 AD 8B 57 F4 26 F7
 (000.200100)  can0  0C0   [7]  B3 CA 92 23 E9 0A D9
 (000.000066)  can0  0C0   [7]  B3 CA 92 23 E9 0A D9
 (000.200060)  can0  282   [6]  D8 FF C2 0E 35 A0
 (000.000067)  can0  282   [6]  D8 FF C2 0E 35 A0
 (000.199964)  can0  7AB   [1]  2E
 (000.000066)  can0  7AB   [1]  2E
 (000.200168)  can0  313   [8]  83 D7 50 57 4A 32 A6 60
 (000.000050)  can0  313   [8]  83 D7 50 57 4A 32 A6 60
 (000.200042)  can0  536   [5]  DB CF 51 0B F9
 (000.000069)  can0  536   [5]  DB CF 51 0B F9
 (000.200094)  can0  5AE   [8]  48 3B 50 7B 47 AB 3C 43
 (000.000053)  can0  5AE   [8]  48 3B 50 7B 47 AB 3C 43
 (000.200013)  can0  011   [5]  12 D5 9D 0C 10
 (000.000059)  can0  011   [5]  12 D5 9D 0C 10
 (000.200074)  can0  1BC   [5]  04 30 C2 5D 7C
 (000.000062)  can0  1BC   [5]  04 30 C2 5D 7C
 (000.200136)  can0  68C   [8]  66 D5 19 7D 0F 39 B4 08
 (000.000062)  can0  68C   [8]  66 D5 19 7D 0F 39 B4 08
 (000.200126)  can0  31E   [8]  44 D9 1B 13 C9 CA BB 75
 (000.000072)  can0  31E   [8]  44 D9 1B 13 C9 CA BB 75
 (000.199870)  can0  11F   [3]  90 33 E5
 (000.000033)  can0  11F   [3]  90 33 E5
 (000.200063)  can0  5FD   [3]  7C 16 2B
 (000.000033)  can0  5FD   [3]  7C 16 2B
 (000.200131)  can0  058   [7]  2C 51 E4 5B 06 5E 3D
 (000.000034)  can0  058   [7]  2C 51 E4 5B 06 5E 3D
 (000.200094)  can0  354   [4]  4D 09 7A 5E
 (000.000060)  can0  354   [4]  4D 09 7A 5E
 (000.200140)  can0  2A9   [8]  75 AC 8F 68 65 94 03 70
 (000.000062)  can0  2A9   [8]  75 AC 8F 68 65 94 03 70
 (000.200072)  can0  165   [8]  E2 5E 44 43 F1 97 62 7F
 (000.000067)  can0  165   [8]  E2 5E 44 43 F1 97 62 7F
 (000.200074)  can0  731   [8]  00 D1 16 08 4F 0A 9E 50
 (000.000063)  can0  731   [8]  00 D1 16 08 4F 0A 9E 50
 (000.199996)  can0  186   [5]  18 D5 59 46 A6
 (000.000057)  can0  186   [5]  18 D5 59 46 A6
 (000.200128)  can0  2B8   [8]  D8 6E 22 73 B5 F8 2A 7D
 (000.000053)  can0  2B8   [8]  D8 6E 22 73 B5 F8 2A 7D
 (000.200040)  can0  3BC   [5]  E8 53 F6 37 15
 (000.000050)  can0  3BC   [5]  E8 53 F6 37 15
 (000.200038)  can0  3AC   [4]  1B 52 26 6D
 (000.000046)  can0  3AC   [4]  1B 52 26 6D
 (000.200255)  can0  188   [8]  65 F2 08 2E 31 AC E9 3B
 (000.000053)  can0  188   [8]  65 F2 08 2E 31 AC E9 3B
 (000.200006)  can0  1C8   [8]  96 40 ED 2B 2D 9B F9 05
 (000.000050)  can0  1C8   [8]  96 40 ED 2B 2D 9B F9 05
 (000.200050)  can0  354   [8]  1F 33 5C 05 85 52 91 24
 (000.000048)  can0  354   [8]  1F 33 5C 05 85 52 91 24
 (000.200079)  can0  3C0   [8]  D5 5C 2F 75 47 DD CA 7B
 (000.000046)  can0  3C0   [8]  D5 5C 2F 75 47 DD CA 7B
 (000.200081)  can0  664   [8]  ED 67 68 26 1C B1 ED 12
 (000.000046)  can0  664   [8]  ED 67 68 26 1C B1 ED 12
 (000.200061)  can0  296   [5]  D1 A9 18 10 53
 (000.000052)  can0  296   [5]  D1 A9 18 10 53
 (000.200139)  can0  41A   [8]  68 42 26 6D C7 C7 A2 06
 (000.000053)  can0  41A   [8]  68 42 26 6D C7 C7 A2 06
 (000.199962)  can0  2CD   [3]  C7 16 E7
 (000.000050)  can0  2CD   [3]  C7 16 E7
 (000.200194)  can0  7EC   [8]  86 80 E2 02 B5 29 A5 5C
 (000.000053)  can0  7EC   [8]  86 80 E2 02 B5 29 A5 5C
 (000.200053)  can0  007   [8]  E2 C4 9E 62 5B 23 73 5D
 (000.000049)  can0  007   [8]  E2 C4 9E 62 5B 23 73 5D
 (000.199966)  can0  095   [1]  E1
 (000.000047)  can0  095   [1]  E1
 (000.200163)  can0  421   [6]  9D 11 5C 49 85 AA
 (000.000047)  can0  421   [6]  9D 11 5C 49 85 AA
 (000.200124)  can0  4A3   [8]  A2 5B 01 31 3A 3F 85 08
 (000.000049)  can0  4A3   [8]  A2 5B 01 31 3A 3F 85 08
 (000.199981)  can0  04F   [3]  8D 8D C2
 (000.000046)  can0  04F   [3]  8D 8D C2
 (000.200150)  can0  32D   [5]  31 74 CA 45 FA
 (000.000049)  can0  32D   [5]  31 74 CA 45 FA
 (000.200149)  can0  478   [8]  50 7A 0B 2C 65 54 22 11
 (000.000050)  can0  478   [8]  50 7A 0B 2C 65 54 22 11
 (000.200060)  can0  425   [6]  1A 7E C7 6D 2D 3C
 (000.000058)  can0  425   [6]  1A 7E C7 6D 2D 3C
 (000.200079)  can0  3F3   [8]  88 5F 9D 49 89 1C BF 7B
 (000.000047)  can0  3F3   [8]  88 5F 9D 49 89 1C BF 7B
 (000.200092)  can0  2FE   [8]  DF 50 50 49 1F 37 CF 2D
 (000.000045)  can0  2FE   [8]  DF 50 50 49 1F 37 CF 2D
 (000.200076)  can0  01F   [8]  A4 E1 E2 4B C3 AC 92 75
 (000.000051)  can0  01F   [8]  A4 E1 E2 4B C3 AC 92 75
 (000.200074)  can0  406   [6]  FD EB 17 7E 55 2C
 (000.000048)  can0  406   [6]  FD EB 17 7E 55 2C
 (000.200096)  can0  2BA   [8]  BF D8 E7 4A E7 45 27 47
 (000.000050)  can0  2BA   [8]  BF D8 E7 4A E7 45 27 47
 (000.199944)  can0  17F   [0] 
 (000.000047)  can0  17F   [0] 
 (000.200119)  can0  7E9   [1]  5C
 (000.000051)  can0  7E9   [1]  5C
 (000.200089)  can0  108   [6]  3B A8 2F 6A FB 1C
 (000.000032)  can0  108   [6]  3B A8 2F 6A FB 1C
 (000.200035)  can0  373   [4]  84 39 B0 60
 (000.000035)  can0  373   [4]  84 39 B0 60
 (000.200051)  can0  52D   [3]  90 35 79
 (000.000029)  can0  52D   [3]  90 35 79
 (000.200092)  can0  4DF   [4]  10 32 D7 37
 (000.000030)  can0  4DF   [4]  10 32 D7 37
 (000.200232)  can0  47B   [8]  3B F5 DD 4A 35 97 3E 5A
 (000.000053)  can0  47B   [8]  3B F5 DD 4A 35 97 3E 5A
 (000.200059)  can0  797   [8]  1C DD 65 21 16 E1 8C 0A
 (000.000046)  can0  797   [8]  1C DD 65 21 16 E1 8C 0A
 (000.200106)  can0  2EB   [8]  0D 8F 85 28 D4 F2 DB 38
 (000.000052)  can0  2EB   [8]  0D 8F 85 28 D4 F2 DB 38
 (000.200078)  can0  72F   [8]  E2 5E E1 36 37 90 18 2D
 (000.000063)  can0  72F   [8]  E2 5E E1 36 37 90 18 2D
 (000.200060)  can0  1E0   [8]  32 AD 09 12 53 D5 CB 61
 (000.000057)  can0  1E0   [8]  32 AD 09 12 53 D5 CB 61
 (000.200071)  can0  6E2   [7]  C4 D3 75 07 0F EC 4C
 (000.000052)  can0  6E2   [7]  C4 D3 75 07 0F EC 4C
 (000.200004)  can0  11A   [4]  5C 71 91 16
 (000.000045)  can0  11A   [4]  5C 71 91 16
 (000.200168)  can0  089   [8]  DF 26 85 18 04 75 8B 16
 (000.000050)  can0  089   [8]  DF 26 85 18 04 75 8B 16
 (000.200092)  can0  179   [8]  39 0C CA 70 10 59 21 5C
 (000.000052)  can0  179   [8]  39 0C CA 70 10 59 21 5C
 (000.199983)  can0  215   [5]  26 3A AE 66 00
 (000.000049)  can0  215   [5]  26 3A AE 66 00
 (000.200097)  can0  252   [4]  D4 F7 7C 58
 (000.000063)  can0  252   [4]  D4 F7 7C 58
 (000.200097)  can0  29E   [6]  B8 71 CD 32 7E 6C
 (000.000054)  can0  29E   [6]  B8 71 CD 32 7E 6C
 (000.200109)  can0  5D4   [8]  D2 41 23 3D B6 6C 4D 05
 (000.000053)  can0  5D4   [8]  D2 41 23 3D B6 6C 4D 05
 (000.200049)  can0  5A2   [6]  C6 58 9A 59 BC 76
 (000.000051)  can0  5A2   [6]  C6 58 9A 59 BC 76
 (000.200002)  can0  6EB   [2]  B6 D4
 (000.000051)  can0  6EB   [2]  B6 D4
 (000.200162)  can0  58F   [6]  78 B4 5E 30 08 2F
 (000.000056)  can0  58F   [6]  78 B4 5E 30 08 2F
 (000.200023)  can0  7B0   [1]  19
 (000.000066)  can0  7B0   [1]  19
 (000.200190)  can0  206   [8]  C5 06 65 42 58 5C 28 13
 (000.000063)  can0  206   [8]  C5 06 65 42 58 5C 28 13
 (000.200079)  can0  373   [8]  DA 3D DD 18 11 E6 C3 7B
 (000.000061)  can0  373   [8]  DA 3D DD 18 11 E6 C3 7B
 (000.199944)  can0  550   [2]  90 52
 (000.000052)  can0  550   [2]  90 52
 (000.200109)  can0  67D   [2]  DB 1F
 (000.000062)  can0  67D   [2]  DB 1F
 (000.200053)  can0  1F8   [1]  DC
 (000.000060)  can0  1F8   [1]  DC
 (000.200092)  can0  2C3   [2]  57 08
 (000.000055)  can0  2C3   [2]  57 08
 (000.200197)  can0  328   [8]  5B DF 43 2B D9 32 E4 39
 (000.000060)  can0  328   [8]  5B DF 43 2B D9 32 E4 39
 (000.199980)  can0  580   [4]  9E 34 A8 5C
 (000.000052)  can0  580   [4]  9E 34 A8 5C
 (000.200070)  can0  1B3   [4]  DF 83 3B 2A
 (000.000049)  can0  1B3   [4]  DF 83 3B 2A
 (000.200154)  can0  1FD   [8]  38 9B C0 60 4D 8F 2F 64
 (000.000047)  can0  1FD   [8]  38 9B C0 60 4D 8F 2F 64
 (000.200085)  can0  14B   [8]  72 42 DF 3E C9 3F 45 1F
 (000.000053)  can0  14B   [8]  72 42 DF 3E C9 3F 45 1F
 (000.200078)  can0  22A   [8]  E8 13 58 67 23 2C F2 24
 (000.000051)  can0  22A   [8]  E8 13 58 67 23 2C F2 24
 (000.200005)  can0  2EE   [4]  06 F5 51 1D
 (000.000051)  can0  2EE   [4]  06 F5 51 1D
 (000.200200)  can0  657   [8]  04 CE 8E 6A 7F 99 10 5E
 (000.000059)  can0  657   [8]  04 CE 8E 6A 7F 99 10 5E
 (000.199995)  can0  22D   [8]  58 CC F4 17 AE 37 D1 55
 (000.000035)  can0  22D   [8]  58 CC F4 17 AE 37 D1 55
 (000.200047)  can0  4D3   [7]  34 5F E4 6C 86 3E 31
 (000.000034)  can0  4D3   [7]  34 5F E4 6C 86 3E 31
 (000.200004)  can0  45B   [3]  AD F3 2D
 (000.000031)  can0  45B   [3]  AD F3 2D
 (000.200216)  can0  4CC   [6]  A6 05 C9 31 18 16
 (000.000057)  can0  4CC   [6]  A6 05 C9 31 18 16
 (000.200113)  can0  4AE   [8]  E1 55 41 08 D9 FE E4 79
 (000.000061)  can0  4AE   [8]  E1 55 41 08 D9 FE E4 79
 (000.200087)  can0  265   [8]  FC 2A D7 1E 53 85 F8 67
 (000.000064)  can0  265   [8]  FC 2A D7 1E 53 85 F8 67
 (000.199967)  can0  08E   [2]  04 A3
 (000.000061)  can0  08E   [2]  04 A3
 (000.200196)  can0  560   [8]  64 E0 27 1F 8E D7 C4 5D
 (000.000062)  can0  560   [8]  64 E0 27 1F 8E D7 C4 5D
 (000.200041)  can0  667   [8]  3C 0F 96 33 3A 33 B5 4A
 (000.000050)  can0  667   [8]  3C 0F 96 33 3A 33 B5 4A
 (000.199930)  can0  5B4   [0] 
 (000.000062)  can0  5B4   [0] 
 (000.200204)  can0  184   [8]  67 60 FD 0C 50 F6 D2 11
 (000.000061)  can0  184   [8]  67 60 FD 0C 50 F6 D2 11
 (000.200200)  can0  454   [8]  68 0C CF 7A 03 71 CD 33
 (000.000068)  can0  454   [8]  68 0C CF 7A 03 71 CD 33
 (000.199981)  can0  625   [8]  DC 6F B2 2D 8A 58 F3 3E
 (000.000069)  can0  625   [8]  DC 6F B2 2D 8A 58 F3 3E
 (000.200036)  can0  413   [8]  DD DD EB 26 A1 94 F9 65
 (000.000050)  can0  413   [8]  DD DD EB 26 A1 94 F9 65
 (000.200005)  can0  2DA   [2]  86 DB
 (000.000071)  can0  2DA   [2]  86 DB
 (000.200282)  can0  1EA   [8]  C9 AF 25 52 52 10 6B 50
 (000.000056)  can0  1EA   [8]  C9 AF 25 52 52 10 6B 50
 (000.199920)  can0  0A7   [5]  8C 43 20 1B 5B
 (000.000023)  can0  0A7   [5]  8C 43 20 1B 5B
 (000.200151)  can0  575   [8]  6A 00 73 68 F9 7E D0 5D
 (000.000063)  can0  575   [8]  6A 00 73 68 F9 7E D0 5D
 (000.199954)  can0  2BC   [2]  4A 75
 (000.000051)  can0  2BC   [2]  4A 75
 (000.200103)  can0  6DF   [2]  13 80
 (000.000056)  can0  6DF   [2]  13 80
 (000.200194)  can0  3FC   [8]  8F CD 98 22 0F B0 2C 60
 (000.000059)  can0  3FC   [8]  8F CD 98 22 0F B0 2C 60
 (000.200071)  can0  2C7   [8]  B0 44 26 46 A2 45 DA 62
 (000.000060)  can0  2C7   [8]  B0 44 26 46 A2 45 DA 62
 (000.200047)  can0  44F   [6]  DD 1D 3B 57 39 1E
 (000.000056)  can0  44F   [6]  DD 1D 3B 57 39 1E
 (000.200052)  can0  420   [6]  8B 2E E5 10 C8 44
 (000.000051)  can0  420   [6]  8B 2E E5 10 C8 44
 (000.200116)  can0  4AB   [8]  23 5B D4 59 20 BA 52 55
 (000.000053)  can0  4AB   [8]  23 5B D4 59 20 BA 52 55
 (000.200076)  can0  765   [8]  1A 39 23 33 21 42 27 68
 (000.000051)  can0  765   [8]  1A 39 23 33 21 42 27 68
 (000.200006)  can0  460   [4]  32 51 45 14
 (000.000054)  can0  460   [4]  32 51 45 14
 (000.200085)  can0  016   [5]  44 F8 93 4F 12
 (000.000053)  can0  016   [5]  44 F8 93 4F 12
 (000.200046)  can0  135   [4]  21 C4 E8 5A
 (000.000055)  can0  135   [4]  21 C4 E8 5A
 (000.200097)  can0  141   [1]  9E
 (000.000069)  can0  141   [1]  9E
 (000.200076)  can0  107   [8]  C9 BB CB 56 28 05 B6 41
 (000.000033)  can0  107   [8]  C9 BB CB 56 28 05 B6 41
 (000.200017)  can0  521   [5]  F0 49 7B 72 CC
 (000.000033)  can0  521   [5]  F0 49 7B 72 CC
 (000.200038)  can0  46D   [3]  ED C3 DB
 (000.000030)  can0  46D   [3]  ED C3 DB
 (000.200233)  can0  0A1   [7]  F4 C5 E9 3D 01 BD 4E
 (000.000059)  can0  0A1   [7]  F4 C5 E9 3D 01 BD 4E
 (000.200061)  can0  36B   [6]  41 40 3D 32 81 DB
 (000.000058)  can0  36B   [6]  41 40 3D 32 81 DB
 (000.200065)  can0  06B   [5]  94 EF BA 21 A0
 (000.000057)  can0  06B   [5]  94 EF BA 21 A0
 (000.200075)  can0  659   [5]  9D F5 24 24 9A
 (000.000063)  can0  659   [5]  9D F5 24 24 9A
 (000.200156)  can0  487   [8]  2A 0D 01 46 8E E5 F8 2B
 (000.000061)  can0  487   [8]  2A 0D 01 46 8E E5 F8 2B
 (000.199971)  can0  6B7   [4]  B6 EA AE 6D
 (000.000052)  can0  6B7   [4]  B6 EA AE 6D
 (000.200157)  can0  349   [6]  A5 BD F6 26 B6 0F
 (000.000063)  can0  349   [6]  A5 BD F6 26 B6 0F
 (000.199908)  can0  1BA   [2]  88 93
 (000.000033)  can0  1BA   [2]  88 93
 (000.200176)  can0  699   [8]  5D 97 5F 01 04 2A 97 7B
 (000.000032)  can0  699   [8]  5D 97 5F 01 04 2A 97 7B
 (000.200072)  can0  0A2   [8]  85 05 96 22 0E 59 6F 44
 (000.000032)  can0  0A2   [8]  85 05 96 22 0E 59 6F 44
 (000.200163)  can0  023   [8]  AE 02 9E 0C 7D 0E 6C 29
 (000.000058)  can0  023   [8]  AE 02 9E 0C 7D 0E 6C 29
 (000.200042)  can0  0CF   [8]  17 7E 1B 59 56 65 A7 5E
 (000.000049)  can0  0CF   [8]  17 7E 1B 59 56 65 A7 5E
 (000.199991)  can0  787   [2]  E4 4A
 (000.000054)  can0  787   [2]  E4 4A
 (000.200211)  can0  436   [8]  16 6A 27 45 7F 07 67 40
 (000.000065)  can0  436   [8]  16 6A 27 45 7F 07 67 40
 (000.200067)  can0  241   [8]  35 17 9B 58 FB 43 F3 04
 (000.000059)  can0  241   [8]  35 17 9B 58 FB 43 F3 04
 (000.200034)  can0  14D   [8]  57 1E 04 40 E6 27 C2 38
 (000.000053)  can0  14D   [8]  57 1E 04 40 E6 27 C2 38
 (000.200044)  can0  43A   [4]  EA 51 59 34
 (000.000063)  can0  43A   [4]  EA 51 59 34
 (000.200005)  can0  552   [0] 
 (000.000061)  can0  552   [0] 
 (000.200216)  can0  489   [8]  F2 AB DA 53 58 F5 34 5C
 (000.000061)  can0  489   [8]  F2 AB DA 53 58 F5 34 5C
 (000.200082)  can0  0E4   [8]  AE 5A DC 3A 6B 48 0A 06
 (000.000065)  can0  0E4   [8]  AE 5A DC 3A 6B 48 0A 06
 (000.199952)  can0  54C   [3]  A9 FE C3
 (000.000053)  can0  54C   [3]  A9 FE C3
 (000.200024)  can0  32E   [0] 
 (000.000056)  can0  32E   [0] 
 (000.200181)  can0  07B   [6]  6B 89 38 1B C9 39
 (000.000057)  can0  07B   [6]  6B 89 38 1B C9 39
 (000.199976)  can0  2F3   [2]  AF 61
 (000.000053)  can0  2F3   [2]  AF 61
 (000.200196)  can0  576   [8]  0A 4C 83 4A C8 EA A0 11
 (000.000060)  can0  576   [8]  0A 4C 83 4A C8 EA A0 11
 (000.199995)  can0  30A   [4]  3D 88 0F 3C
 (000.000053)  can0  30A   [4]  3D 88 0F 3C
 (000.200118)  can0  28D   [0] 
 (000.000062)  can0  28D   [0] 
 (000.200135)  can0  63A   [8]  DD FB 5E 39 86 13 F3 08
 (000.000059)  can0  63A   [8]  DD FB 5E 39 86 13 F3 08
 (000.200066)  can0  52D   [7]  08 1D EF 10 5B 28 9F
 (000.000063)  can0  52D   [7]  08 1D EF 10 5B 28 9F
 (000.200217)  can0  347   [8]  CB 6D E4 2A C2 F3 17 68
 (000.000078)  can0  347   [8]  CB 6D E4 2A C2 F3 17 68
 (000.199877)  can0  63F   [6]  8B 2D 12 03 32 29
 (000.000033)  can0  63F   [6]  8B 2D 12 03 32 29
 (000.200109)  can0  6F8   [8]  60 00 E2 3B 6E FC F9 3D
 (000.000031)  can0  6F8   [8]  60 00 E2 3B 6E FC F9 3D
 (000.200069)  can0  2D5   [8]  36 E7 9A 4F DF 4D E9 3D
 (000.000035)  can0  2D5   [8]  36 E7 9A 4F DF 4D E9 3D
 (000.200073)  can0  65E   [3]  72 A5 2E
 (000.000061)  can0  65E   [3]  72 A5 2E
 (000.200150)  can0  3A3   [8]  5E 04 31 7A DD 01 75 58
 (000.000060)  can0  3A3   [8]  5E 04 31 7A DD 01 75 58
 (000.200035)  can0  1F9   [8]  63 15 68 61 26 E7 D2 76
 (000.000046)  can0  1F9   [8]  63 15 68 61 26 E7 D2 76
 (000.200099)  can0  2C2   [8]  82 0F 72 0B 09 5E C1 23
 (000.000055)  can0  2C2   [8]  82 0F 72 0B 09 5E C1 23
 (000.200071)  can0  074   [8]  CC 51 D9 0B B3 B6 F9 45
 (000.000058)  can0  074   [8]  CC 51 D9 0B B3 B6 F9 45
 (000.200167)  can0  483   [7]  E6 DF D9 27 7B 13 CD
 (000.000066)  can0  483   [7]  E6 DF D9 27 7B 13 CD
 (000.199967)  can0  692   [6]  E9 0F C7 5B 67 51
 (000.000067)  can0  692   [6]  E9 0F C7 5B 67 51
 (000.200053)  can0  4B0   [8]  46 9F 87 02 0E 93 FA 6F
 (000.000052)  can0  4B0   [8]  46 9F 87 02 0E 93 FA 6F
 (000.200077)  can0  692   [8]  FA E3 D6 36 36 0A A1 52
 (000.000056)  can0  692   [8]  FA E3 D6 36 36 0A A1 52
 (000.200077)  can0  717   [8]  13 0C 16 2B 10 D1 5E 69
 (000.000060)  can0  717   [8]  13 0C 16 2B 10 D1 5E 69
 (000.200047)  can0  094   [7]  37 B8 31 60 56 E3 4A
 (000.000059)  can0  094   [7]  37 B8 31 60 56 E3 4A
 (000.200075)  can0  3E2   [8]  60 41 0C 08 57 B4 7E 4A
 (000.000054)  can0  3E2   [8]  60 41 0C 08 57 B4 7E 4A
 (000.200073)  can0  506   [8]  0A 6B 78 10 89 B9 6D 1E
 (000.000051)  can0  506   [8]  0A 6B 78 10 89 B9 6D 1E
 (000.199951)  can0  283   [0] 
 (000.000055)  can0  283   [0] 
 (000.200229)  can0  336   [8]  7D 72 29 4D E6 57 2F 06
 (000.000064)  can0  336   [8]  7D 72 29 4D E6 57 2F 06
 (000.199974)  can0  40C   [4]  F5 EA 29 76
 (000.000058)  can0  40C   [4]  F5 EA 29 76
 (000.200141)  can0  67D   [8]  D4 44 11 4D 94 8D C6 53
 (000.000055)  can0  67D   [8]  D4 44 11 4D 94 8D C6 53
 (000.200050)  can0  748   [8]  A5 5E 25 3D DC 9F A0 42
 (000.000047)  can0  748   [8]  A5 5E 25 3D DC 9F A0 42
 (000.200111)  can0  25F   [8]  32 83 EB 26 41 C6 7A 03
 (000.000053)  can0  25F   [8]  32 83 EB 26 41 C6 7A 03
 (000.199989)  can0  695   [2]  98 7A
 (000.000064)  can0  695   [2]  98 7A
 (000.200052)  can0  7BE   [3]  24 DD 62
 (000.000057)  can0  7BE   [3]  24 DD 62
 (000.200172)  can0  093   [8]  58 8B 39 6E CA 5B D2 32
 (000.000061)  can0  093   [8]  58 8B 39 6E CA 5B D2 32
 (000.200009)  can0  715   [5]  B0 B3 01 39 21
 (000.000055)  can0  715   [5]  B0 B3 01 39 21
 (000.200096)  can0  799   [5]  BF 95 73 5B 16
 (000.000061)  can0  799   [5]  BF 95 73 5B 16
 (000.200068)  can0  595   [4]  AB F3 41 69
 (000.000061)  can0  595   [4]  AB F3 41 69
 (000.200011)  can0  37C   [0] 
 (000.000065)  can0  37C   [0] 
 (000.200225)  can0  12C   [8]  1C 64 CC 28 C1 47 B9 4C
 (000.000067)  can0  12C   [8]  1C 64 CC 28 C1 47 B9 4C
 (000.199973)  can0  47E   [5]  5C 6B AE 77 3C
 (000.000052)  can0  47E   [5]  5C 6B AE 77 3C
 (000.200113)  can0  458   [0] 
 (000.000063)  can0  458   [0] 
 (000.200074)  can0  2A8   [6]  B5 50 CE 1E BD 79
 (000.000030)  can0  2A8   [6]  B5 50 CE 1E BD 79
 (000.200069)  can0  7AC   [6]  DE D4 51 45 45 67
 (000.000032)  can0  7AC   [6]  DE D4 51 45 45 67
 (000.200107)  can0  30B   [8]  5C CD 70 45 A0 10 28 63
 (000.000032)  can0  30B   [8]  5C CD 70 45 A0 10 28 63
 (000.200140)  can0  531   [7]  7D 35 5D 1D AD 70 F6
 (000.000058)  can0  531   [7]  7D 35 5D 1D AD 70 F6
 (000.200055)  can0  357   [6]  88 0E 48 0F 83 7C
 (000.000057)  can0  357   [6]  88 0E 48 0F 83 7C
 (000.200037)  can0  222   [5]  44 C4 91 65 A0
 (000.000052)  can0  222   [5]  44 C4 91 65 A0
 (000.200014)  can0  15A   [0] 
 (000.000063)  can0  15A   [0] 
 (000.200241)  can0  020   [8]  9D 0A 0E 70 C8 6A 00 65
 (000.000068)  can0  020   [8]  9D 0A 0E 70 C8 6A 00 65
 (000.199933)  can0  331   [3]  85 E4 4E
 (000.000045)  can0  331   [3]  85 E4 4E
 (000.200095)  can0  7B9   [3]  23 9A DD
 (000.000058)  can0  7B9   [3]  23 9A DD
 (000.200170)  can0  400   [8]  65 13 D0 50 32 69 B0 78
 (000.000059)  can0  400   [8]  65 13 D0 50 32 69 B0 78
 (000.199960)  can0  086   [2]  DF D9
 (000.000061)  can0  086   [2]  DF D9
 (000.200182)  can0  319   [8]  60 B8 F3 41 3B 85 54 46
 (000.000056)  can0  319   [8]  60 B8 F3 41 3B 85 54 46
 (000.200002)  can0  30D   [4]  DB D3 01 57
 (000.000051)  can0  30D   [4]  DB D3 01 57
 (000.200159)  can0  444   [7]  19 C2 EF 5C 64 24 17
 (000.000066)  can0  444   [7]  19 C2 EF 5C 64 24 17
 (000.200058)  can0  012   [6]  2C 8F 17 08 44 E3
 (000.000068)  can0  012   [6]  2C 8F 17 08 44 E3
 (000.199988)  can0  009   [1]  21
 (000.000064)  can0  009   [1]  21
 (000.200114)  can0  514   [4]  87 8A 2E 30
 (000.000067)  can0  514   [4]  87 8A 2E 30
 (000.200098)  can0  7C3   [8]  46 BA 1D 08 49 40 EA 32
 (000.000046)  can0  7C3   [8]  46 BA 1D 08 49 40 EA 32
 (000.200065)  can0  6CE   [6]  26 7C 05 5C E7 29
 (000.000059)  can0  6CE   [6]  26 7C 05 5C E7 29
 (000.200070)  can0  48E   [6]  22 AF E0 3D 9B D7
 (000.000060)  can0  48E   [6]  22 AF E0 3D 9B D7
 (000.200096)  can0  12A   [8]  02 84 94 5F 6E 5D 44 4A
 (000.000057)  can0  12A   [8]  02 84 94 5F 6E 5D 44 4A
 (000.200080)  can0  1B5   [8]  D2 81 5B 6D C7 11 F6 30
 (000.000062)  can0  1B5   [8]  D2 81 5B 6D C7 11 F6 30
 (000.200051)  can0  2D1   [8]  0B F5 CA 5A DB 3A 5C 65
 (000.000050)  can0  2D1   [8]  0B F5 CA 5A DB 3A 5C 65
 (000.200107)  can0  4AF   [8]  9D C2 E2 27 C3 B1 E0 26
 (000.000066)  can0  4AF   [8]  9D C2 E2 27 C3 B1 E0 26
 (000.200001)  can0  371   [4]  D8 02 4E 36
 (000.000067)  can0  371   [4]  D8 02 4E 36
 (000.200152)  can0  310   [8]  7E 13 F6 7F DF D1 3B 48
 (000.000064)  can0  310   [8]  7E 13 F6 7F DF D1 3B 48
 (000.200011)  can0  144   [5]  C6 FB C7 3F D2
 (000.000064)  can0  144   [5]  C6 FB C7 3F D2
 (000.200097)  can0  42B   [8]  6D A5 9A 0C 56 75 73 3F
 (000.000055)  can0  42B   [8]  6D A5 9A 0C 56 75 73 3F
 (000.200108)  can0  5E6   [8]  C4 D2 B7 09 9B 37 B3 24
 (000.000064)  can0  5E6   [8]  C4 D2 B7 09 9B 37 B3 24
 (000.200065)  can0  78A   [7]  63 49 A9 55 5C 82 35
 (000.000062)  can0  78A   [7]  63 49 A9 55 5C 82 35
 (000.200127)  can0  595   [8]  37 BD 91 17 45 EA 5F 33
 (000.000070)  can0  595   [8]  37 BD 91 17 45 EA 5F 33
 (000.199967)  can0  19B   [4]  08 9C 40 5A
 (000.000056)  can0  19B   [4]  08 9C 40 5A
 (000.199973)  can0  4F9   [0] 
 (000.000048)  can0  4F9   [0] 
 (000.200133)  can0  3FF   [0] 
 (000.000060)  can0  3FF   [0] 
 (000.200220)  can0  365   [8]  16 7B 0E 7E 91 3F 11 76
 (000.000062)  can0  365   [8]  16 7B 0E 7E 91 3F 11 76
 (000.199989)  can0  098   [3]  E7 B4 84
 (000.000065)  can0  098   [3]  E7 B4 84
 (000.200175)  can0  1F3   [8]  1A 96 80 2D 7D B9 8B 1F
 (000.000066)  can0  1F3   [8]  1A 96 80 2D 7D B9 8B 1F
 (000.200040)  can0  442   [8]  D9 3B C1 51 D8 41 D6 22
 (000.000052)  can0  442   [8]  D9 3B C1 51 D8 41 D6 22
 (000.199941)  can0  5EB   [0] 
 (000.000055)  can0  5EB   [0] 
 (000.200165)  can0  0E5   [5]  94 6C B9 6B DE
 (000.000054)  can0  0E5   [5]  94 6C B9 6B DE
 (000.200118)  can0  706   [6]  E7 FD E2 30 05 C3
 (000.000062)  can0  706   [6]  E7 FD E2 30 05 C3
 (000.199946)  can0  096   [0] 
 (000.000057)  can0  096   [0] 
 (000.200150)  can0  57F   [8]  8D EB 32 1E 17 3E 90 58
 (000.000041)  can0  57F   [8]  8D EB 32 1E 17 3E 90 58
 (000.199989)  can0  3E2   [4]  95 9C 5D 61
 (000.000038)  can0  3E2   [4]  95 9C 5D 61
 (000.200139)  can0  01F   [8]  52 0F 46 27 62 04 44 49
 (000.000036)  can0  01F   [8]  52 0F 46 27 62 04 44 49
 (000.200060)  can0  22C   [8]  3A 46 1A 6C 18 30 A6 45
 (000.000035)  can0  22C   [8]  3A 46 1A 6C 18 30 A6 45
 (000.200153)  can0  43C   [7]  9F 97 40 5E 21 BD 21
 (000.000064)  can0  43C   [7]  9F 97 40 5E 21 BD 21
 (000.200003)  can0  27C   [3]  FF 02 6F
 (000.000063)  can0  27C   [3]  FF 02 6F
 (000.200143)  can0  109   [7]  87 64 CC 43 9F 79 E3
 (000.000063)  can0  109   [7]  87 64 CC 43 9F 79 E3
 (000.199953)  can0  0B7   [0] 
 (000.000063)  can0  0B7   [0] 
 (000.200195)  can0  02E   [8]  4D D4 E4 20 10 CC 11 63
 (000.000060)  can0  02E   [8]  4D D4 E4 20 10 CC 11 63
 (000.199982)  can0  19C   [2]  E5 21
 (000.000065)  can0  19C   [2]  E5 21
 (000.200161)  can0  392   [8]  1E DE 27 78 BE B5 28 23
 (000.000060)  can0  392   [8]  1E DE 27 78 BE B5 28 23
 (000.200066)  can0  464   [8]  D6 E5 CE 68 A0 C0 73 6D
 (000.000056)  can0  464   [8]  D6 E5 CE 68 A0 C0 73 6D
 (000.200002)  can0  6AF   [5]  C2 7D 95 78 2B
 (000.000054)  can0  6AF   [5]  C2 7D 95 78 2B
 (000.200047)  can0  1A8   [1]  AE
 (000.000069)  can0  1A8   [1]  AE
 (000.200130)  can0  1A8   [5]  51 44 CB 68 5F
 (000.000066)  can0  1A8   [5]  51 44 CB 68 5F
 (000.200116)  can0  405   [8]  95 A0 B1 6E 34 6C 19 2F
 (000.000061)  can0  405   [8]  95 A0 B1 6E 34 6C 19 2F
 (000.199948)  can0  315   [2]  44 38
 (000.000055)  can0  315   [2]  44 38
 (000.200181)  can0  5C5   [8]  6D 06 DC 25 57 89 F9 22
 (000.000056)  can0  5C5   [8]  6D 06 DC 25 57 89 F9 22
 (000.200064)  can0  362   [8]  15 3F 22 46 C6 07 23 1A
 (000.000054)  can0  362   [8]  15 3F 22 46 C6 07 23 1A
 (000.200046)  can0  0E3   [8]  66 C8 96 07 92 9F D8 28
 (000.000048)  can0  0E3   [8]  66 C8 96 07 92 9F D8 28
 (000.200128)  can0  261   [8]  BE 70 32 42 0A 24 0A 07
 (000.000058)  can0  261   [8]  BE 70 32 42 0A 24 0A 07
 (000.200079)  can0  6EA   [8]  BB EE F1 6D 92 48 87 04
 (000.000061)  can0  6EA   [8]  BB EE F1 6D 92 48 87 04
 (000.200088)  can0  2A1   [8]  F2 52 E4 2A A7 66 35 7D
 (000.000058)  can0  2A1   [8]  F2 52 E4 2A A7 66 35 7D
 (000.200061)  can0  4F9   [7]  DB D2 4E 2C 0E 18 96
 (000.000058)  can0  4F9   [7]  DB D2 4E 2C 0E 18 96
 (000.200084)  can0  06A   [8]  BF 44 8E 3B 2F 4E 05 3B
 (000.000061)  can0  06A   [8]  BF 44 8E 3B 2F 4E 05 3B
 (000.200057)  can0  549   [8]  86 D7 FE 5D AB F0 7A 4A
 (000.000052)  can0  549   [8]  86 D7 FE 5D AB F0 7A 4A
 (000.200074)  can0  7B8   [8]  71 F8 9D 64 9C 38 B4 01
 (000.000054)  can0  7B8   [8]  71 F8 9D 64 9C 38 B4 01
 (000.200091)  can0  387   [8]  2E D8 8C 2A E9 DD 12 49
 (000.000052)  can0  387   [8]  2E D8 8C 2A E9 DD 12 49
 (000.200108)  can0  700   [8]  F3 01 1D 50 EA CD 91 30
 (000.000056)  can0  700   [8]  F3 01 1D 50 EA CD 91 30
 (000.200031)  can0  458   [8]  7D 16 19 35 FA E6 63 1C
 (000.000084)  can0  458   [8]  7D 16 19 35 FA E6 63 1C
 (000.200047)  can0  3BB   [8]  A1 4D 99 19 B4 C0 59 7E
 (000.000047)  can0  3BB   [8]  A1 4D 99 19 B4 C0 59 7E
 (000.200250)  can0  4F6   [8]  C2 D8 EF 42 60 C5 BF 22
 (000.000051)  can0  4F6   [8]  C2 D8 EF 42 60 C5 BF 22
 (000.199885)  can0  39B   [1]  8F
 (000.000056)  can0  39B   [1]  8F
 (000.200158)  can0  0AE   [5]  90 81 4E 0A 67
 (000.000051)  can0  0AE   [5]  90 81 4E 0A 67
 (000.200035)  can0  1B1   [2]  03 D1
 (000.000051)  can0  1B1   [2]  03 D1
 (000.200123)  can0  2DA   [1]  21
 (000.000066)  can0  2DA   [1]  21
 (000.200002)  can0  21E   [4]  C5 0F 14 78
 (000.000033)  can0  21E   [4]  C5 0F 14 78
 (000.200030)  can0  5C3   [2]  70 05
 (000.000029)  can0  5C3   [2]  70 05
 (000.200058)  can0  7B1   [1]  32
 (000.000028)  can0  7B1   [1]  32
 (000.200217)  can0  38D   [4]  08 B2 7D 29
 (000.000050)  can0  38D   [4]  08 B2 7D 29
 (000.200121)  can0  075   [7]  0E 30 8A 34 24 51 B2
 (000.000048)  can0  075   [7]  0E 30 8A 34 24 51 B2
 (000.200084)  can0  0AD   [8]  8B E9 08 1E 5E B2 EB 22
 (000.000047)  can0  0AD   [8]  8B E9 08 1E 5E B2 EB 22
 (000.200084)  can0  3A0   [8]  96 EF E2 55 7A 66 E6 08
 (000.000046)  can0  3A0   [8]  96 EF E2 55 7A 66 E6 08
 (000.200082)  can0  3BF   [8]  55 A8 68 50 DD 55 02 03
 (000.000046)  can0  3BF   [8]  55 A8 68 50 DD 55 02 03
 (000.200070)  can0  7CC   [8]  54 74 71 77 8F 35 4A 28
 (000.000044)  can0  7CC   [8]  54 74 71 77 8F 35 4A 28
 (000.200004)  can0  65C   [4]  0D 67 4C 47
 (000.000044)  can0  65C   [4]  0D 67 4C 47
 (000.200173)  can0  4D6   [8]  B4 5A 92 09 63 40 05 23
 (000.000051)  can0  4D6   [8]  B4 5A 92 09 63 40 05 23
 (000.200127)  can0  433   [8]  8C DF BB 17 A9 0C BE 23
 (000.000064)  can0  433   [8]  8C DF BB 17 A9 0C BE 23
 (000.200128)  can0  254   [8]  CD 5D 70 62 01 83 59 7D
 (000.000083)  can0  254   [8]  CD 5D 70 62 01 83 59 7D
 (000.200016)  can0  139   [8]  5F 35 45 20 D9 EC E3 38
 (000.000060)  can0  139   [8]  5F 35 45 20 D9 EC E3 38
 (000.200005)  can0  1E6   [5]  54 53 CA 41 A5
 (000.000051)  can0  1E6   [5]  54 53 CA 41 A5
 (000.200125)  can0  7AD   [8]  83 BB 3A 0D 7A 57 29 66
 (000.000054)  can0  7AD   [8]  83 BB 3A 0D 7A 57 29 66
 (000.200056)  can0  3C3   [7]  09 8D 73 0E 1F 92 59
 (000.000054)  can0  3C3   [7]  09 8D 73 0E 1F 92 59
 (000.200073)  can0  19B   [7]  2C 00 2E 53 71 76 A1
 (000.000051)  can0  19B   [7]  2C 00 2E 53 71 76 A1
 (000.199960)  can0  556   [0] 
 (000.000061)  can0  556   [0] 
 (000.200091)  can0  79D   [1]  33
 (000.000052)  can0  79D   [1]  33
 (000.200085)  can0  5FC   [0] 
 (000.000065)  can0  5FC   [0] 
 (000.200047)  can0  358   [1]  0E
 (000.000048)  can0  358   [1]  0E
 (000.200120)  can0  746   [2]  E3 8A
 (000.000062)  can0  746   [2]  E3 8A
 (000.200165)  can0  30B   [6]  6E 9E 28 0C CE 56
 (000.000069)  can0  30B   [6]  6E 9E 28 0C CE 56
 (000.200074)  can0  63D   [7]  ED E8 B1 09 D9 1F A1
 (000.000056)  can0  63D   [7]  ED E8 B1 09 D9 1F A1
 (000.200115)  can0  78E   [8]  4A 96 42 6E E5 6C C4 2A
 (000.000066)  can0  78E   [8]  4A 96 42 6E E5 6C C4 2A
 (000.200052)  can0  3FA   [8]  6F DE 20 2A 97 AB 70 49
 (000.000051)  can0  3FA   [8]  6F DE 20 2A 97 AB 70 49
 (000.199962)  can0  381   [2]  88 E5
 (000.000057)  can0  381   [2]  88 E5
 (000.200153)  can0  0A2   [8]  B2 F0 BB 63 FA 5B CA 58
 (000.000048)  can0  0A2   [8]  B2 F0 BB 63 FA 5B CA 58
 (000.199935)  can0  4CB   [0] 
 (000.000050)  can0  4CB   [0] 
 (000.200208)  can0  423   [8]  05 F3 BB 46 2E 8F 85 19
 (000.000048)  can0  423   [8]  05 F3 BB 46 2E 8F 85 19
 (000.200024)  can0  282   [3]  FD E5 DD
 (000.000058)  can0  282   [3]  FD E5 DD
 (000.200221)  can0  4EB   [8]  98 E8 7A 5B 79 DC DC 5D
 (000.000074)  can0  4EB   [8]  98 E8 7A 5B 79 DC DC 5D
 (000.199950)  can0  004   [3]  5E 49 A1
 (000.000056)  can0  004   [3]  5E 49 A1
 (000.200343)  can0  402   [8]  95 A7 80 3C 83 AF F2 65
 (000.000081)  can0  402   [8]  95 A7 80 3C 83 AF F2 65
 (000.199875)  can0  46F   [8]  00 39 E7 77 11 BD C3 52
 (000.000032)  can0  46F   [8]  00 39 E7 77 11 BD C3 52
 (000.199966)  can0  797   [2]  0B 19
 (000.000033)  can0  797   [2]  0B 19
 (000.200077)  can0  673   [3]  73 70 B4
 (000.000035)  can0  673   [3]  73 70 B4
 (000.200257)  can0  65F   [8]  C4 E9 6C 1E E1 F8 37 03
 (000.000062)  can0  65F   [8]  C4 E9 6C 1E E1 F8 37 03
 (000.199919)  can0  4EC   [1]  A0
 (000.000054)  can0  4EC   [1]  A0
 (000.200192)  can0  6AC   [8]  51 8E B2 73 B0 56 4A 07
 (000.000058)  can0  6AC   [8]  51 8E B2 73 B0 56 4A 07
 (000.200094)  can0  11C   [8]  AE 52 5A 7A 1E F5 F0 6F
 (000.000060)  can0  11C   [8]  AE 52 5A 7A 1E F5 F0 6F
 (000.199957)  can0  77D   [3]  A2 A4 E3
 (000.000053)  can0  77D   [3]  A2 A4 E3
 (000.200047)  can0  760   [2]  FE 40
 (000.000048)  can0  760   [2]  FE 40
 (000.200190)  can0  755   [8]  59 7B 0C 20 C8 75 78 73
 (000.000054)  can0  755   [8]  59 7B 0C 20 C8 75 78 73
 (000.200059)  can0  44D   [8]  5E D0 5F 78 AC 9A 5D 2F
 (000.000048)  can0  44D   [8]  5E D0 5F 78 AC 9A 5D 2F
 (000.199974)  can0  745   [2]  8D 93
 (000.000047)  can0  745   [2]  8D 93
 (000.200233)  can0  1E4   [8]  09 F6 5B 42 90 28 F2 55
 (000.000058)  can0  1E4   [8]  09 F6 5B 42 90 28 F2 55
 (000.200073)  can0  766   [8]  40 7F 3C 5D 82 28 7E 43
 (000.000062)  can0  766   [8]  40 7F 3C 5D 82 28 7E 43
 (000.200083)  can0  40A   [8]  A1 1D 6F 33 87 5B 78 61
 (000.000070)  can0  40A   [8]  A1 1D 6F 33 87 5B 78 61
 (000.199970)  can0  431   [3]  73 DF 8B
 (000.000058)  can0  431   [3]  73 DF 8B
 (000.200066)  can0  7E5   [1]  88
 (000.000069)  can0  7E5   [1]  88
 (000.200059)  can0  27B   [1]  02
 (000.000056)  can0  27B   [1]  02
 (000.200037)  can0  1AD   [0] 
 (000.000053)  can0  1AD   [0] 
 (000.200090)  can0  783   [1]  25
 (000.000055)  can0  783   [1]  25
 (000.200192)  can0  22E   [8]  F7 59 3A 61 95 F1 E5 29
 (000.000051)  can0  22E   [8]  F7 59 3A 61 95 F1 E5 29
 (000.200036)  can0  789   [7]  17 1A 64 6D 93 DB C7
 (000.000046)  can0  789   [7]  17 1A 64 6D 93 DB C7
 (000.200093)  can0  325   [8]  1A 37 40 53 56 77 7F 24
 (000.000045)  can0  325   [8]  1A 37 40 53 56 77 7F 24
 (000.200136)  can0  1FB   [8]  E7 CA E0 39 E1 99 43 01
 (000.000051)  can0  1FB   [8]  E7 CA E0 39 E1 99 43 01
 (000.200005)  can0  6FF   [8]  1B 41 CF 01 7A B1 F7 35
 (000.000035)  can0  6FF   [8]  1B 41 CF 01 7A B1 F7 35
 (000.200068)  can0  350   [8]  42 20 0F 2D FD CC 1C 7F
 (000.000032)  can0  350   [8]  42 20 0F 2D FD CC 1C 7F
 (000.200040)  can0  37E   [6]  F0 8D 91 19 01 F3
 (000.000036)  can0  37E   [6]  F0 8D 91 19 01 F3
 (000.200109)  can0  6B7   [5]  68 24 B0 70 E5
 (000.000056)  can0  6B7   [5]  68 24 B0 70 E5
 (000.200148)  can0  644   [8]  7A AA 26 12 CD 0D 49 29
 (000.000058)  can0  644   [8]  7A AA 26 12 CD 0D 49 29
 (000.199973)  can0  796   [2]  60 E9
 (000.000059)  can0  796   [2]  60 E9
 (000.200184)  can0  44A   [8]  11 7A EE 4A 46 F6 83 4A
 (000.000060)  can0  44A   [8]  11 7A EE 4A 46 F6 83 4A
 (000.200065)  can0  707   [8]  27 90 C7 4B 06 6E 4C 48
 (000.000055)  can0  707   [8]  27 90 C7 4B 06 6E 4C 48
 (000.199971)  can0  267   [2]  80 1F
 (000.000050)  can0  267   [2]  80 1F
 (000.200076)  can0  760   [2]  B5 42
 (000.000050)  can0  760   [2]  B5 42
 (000.200131)  can0  178   [5]  E0 6D 09 0B 2F
 (000.000053)  can0  178   [5]  E0 6D 09 0B 2F
 (000.200162)  can0  3BB   [8]  15 E9 A6 13 FF F1 1D 52
 (000.000061)  can0  3BB   [8]  15 E9 A6 13 FF F1 1D 52
 (000.200068)  can0  0A8   [8]  CC FF 66 7B 3F 68 05 5E
 (000.000053)  can0  0A8   [8]  CC FF 66 7B 3F 68 05 5E
 (000.200077)  can0  021   [8]  FA 6A 74 04 6C 54 B6 45
 (000.000054)  can0  021   [8]  FA 6A 74 04 6C 54 B6 45
 (000.200063)  can0  1A6   [8]  B2 4A 3A 10 AD 40 E6 56
 (000.000046)  can0  1A6   [8]  B2 4A 3A 10 AD 40 E6 56
 (000.200104)  can0  204   [8]  B4 AE 32 1F 6C 44 58 5A
 (000.000054)  can0  204   [8]  B4 AE 32 1F 6C 44 58 5A
 (000.199979)  can0  41B   [4]  23 BA 57 49
 (000.000049)  can0  41B   [4]  23 BA 57 49
 (000.200144)  can0  5F7   [8]  5B 56 A4 12 6F 77 A1 47
 (000.000048)  can0  5F7   [8]  5B 56 A4 12 6F 77 A1 47
 (000.200076)  can0  57E   [8]  9F A7 07 73 39 31 5C 27
 (000.000048)  can0  57E   [8]  9F A7 07 73 39 31 5C 27
 (000.199985)  can0  684   [4]  38 23 7A 79
 (000.000045)  can0  684   [4]  38 23 7A 79
 (000.200120)  can0  443   [4]  6C CF 10 45
 (000.000057)  can0  443   [4]  6C CF 10 45
 (000.200202)  can0  430   [6]  D1 D0 8A 17 D6 15
 (000.000059)  can0  430   [6]  D1 D0 8A 17 D6 15
 (000.199939)  can0  772   [3]  83 56 08
 (000.000059)  can0  772   [3]  83 56 08
 (000.200159)  can0  65C   [7]  E3 8D 72 47 77 A2 5F
 (000.000057)  can0  65C   [7]  E3 8D 72 47 77 A2 5F
 (000.200063)  can0  36C   [6]  F3 7D 62 1A 63 E1
 (000.000061)  can0  36C   [6]  F3 7D 62 1A 63 E1
 (000.200107)  can0  4DF   [8]  D2 58 1D 34 5D 12 60 07
 (000.000058)  can0  4DF   [8]  D2 58 1D 34 5D 12 60 07
 (000.199960)  can0  08A   [1]  96
 (000.000065)  can0  08A   [1]  96
 (000.200099)  can0  125   [8]  3B 56 27 4B 69 B5 4F 5A
 (000.000037)  can0  125   [8]  3B 56 27 4B 69 B5 4F 5A
 (000.200046)  can0  1D2   [7]  CE 31 24 2C 02 96 70
 (000.000030)  can0  1D2   [7]  CE 31 24 2C 02 96 70
 (000.200103)  can0  00E   [8]  D8 AB 92 38 80 7F A5 72
 (000.000032)  can0  00E   [8]  D8 AB 92 38 80 7F A5 72
 (000.200135)  can0  622   [8]  F7 C8 BF 5F 7E 14 3B 6F
 (000.000054)  can0  622   [8]  F7 C8 BF 5F 7E 14 3B 6F
 (000.200100)  can0  793   [8]  F5 B6 9A 1C FF DA 87 49
 (000.000057)  can0  793   [8]  F5 B6 9A 1C FF DA 87 49
 (000.200069)  can0  6E1   [8]  62 BC 03 36 C0 E3 3A 00
 (000.000059)  can0  6E1   [8]  62 BC 03 36 C0 E3 3A 00
 (000.199996)  can0  137   [4]  1D F6 9A 07
 (000.000054)  can0  137   [4]  1D F6 9A 07
 (000.200066)  can0  5A6   [3]  D0 90 D4
 (000.000060)  can0  5A6   [3]  D0 90 D4
 (000.200212)  can0  081   [8]  34 5C 69 19 53 2A A5 7B
 (000.000051)  can0  081   [8]  34 5C 69 19 53 2A A5 7B
 (000.199885)  can0  4B3   [2]  55 C0
 (000.000046)  can0  4B3   [2]  55 C0
 (000.200178)  can0  0A1   [8]  41 EC 96 3A C3 AE B0 74
 (000.000050)  can0  0A1   [8]  41 EC 96 3A C3 AE B0 74
 (000.200097)  can0  688   [8]  41 C3 EB 63 1B 76 19 22
 (000.000061)  can0  688   [8]  41 C3 EB 63 1B 76 19 22
 (000.200049)  can0  413   [7]  1A 51 A1 6B F4 AA 85
 (000.000059)  can0  413   [7]  1A 51 A1 6B F4 AA 85
 (000.200081)  can0  720   [8]  B4 8E C0 79 57 B8 87 1B
 (000.000058)  can0  720   [8]  B4 8E C0 79 57 B8 87 1B
 (000.199913)  can0  2B1   [1]  19
 (000.000047)  can0  2B1   [1]  19
 (000.200199)  can0  684   [8]  22 DF 25 5C 05 5F 40 16
 (000.000051)  can0  684   [8]  22 DF 25 5C 05 5F 40 16
 (000.200099)  can0  1F4   [7]  58 89 E5 11 A7 DE 44
 (000.000058)  can0  1F4   [7]  58 89 E5 11 A7 DE 44
 (000.200069)  can0  159   [8]  68 4B 36 71 FB 59 59 44
 (000.000055)  can0  159   [8]  68 4B 36 71 FB 59 59 44
 (000.200058)  can0  5DA   [8]  BE 08 0A 39 63 24 E7 0E
 (000.000052)  can0  5DA   [8]  BE 08 0A 39 63 24 E7 0E
 (000.199956)  can0  4E3   [0] 
 (000.000059)  can0  4E3   [0] 
 (000.200162)  can0  637   [8]  EB A3 32 01 57 F5 FF 54
 (000.000040)  can0  637   [8]  EB A3 32 01 57 F5 FF 54
 (000.200136)  can0  115   [8]  AE AD 87 70 C6 1B 0D 4A
 (000.000073)  can0  115   [8]  AE AD 87 70 C6 1B 0D 4A
 (000.200029)  can0  771   [7]  1D 54 19 67 F5 75 01
 (000.000057)  can0  771   [7]  1D 54 19 67 F5 75 01
 (000.199940)  can0  2B0   [0] 
 (000.000053)  can0  2B0   [0] 
 (000.200123)  can0  697   [3]  4C A3 32
 (000.000049)  can0  697   [3]  4C A3 32
 (000.200173)  can0  001   [5]  EB 91 44 38 DB
 (000.000056)  can0  001   [5]  EB 91 44 38 DB
 (000.200051)  can0  65F   [8]  3E 82 AD 33 42 13 5A 5F
 (000.000036)  can0  65F   [8]  3E 82 AD 33 42 13 5A 5F
 (000.200062)  can0  6AA   [8]  38 0C 07 67 E1 AC C0 2B
 (000.000032)  can0  6AA   [8]  38 0C 07 67 E1 AC C0 2B
 (000.199976)  can0  056   [3]  38 A2 C0
 (000.000034)  can0  056   [3]  38 A2 C0
 (000.200189)  can0  2C3   [6]  32 1D A4 09 34 9A
 (000.000054)  can0  2C3   [6]  32 1D A4 09 34 9A
 (000.200224)  can0  7AE   [8]  29 10 7D 13 5E 4A ED 43
 (000.000062)  can0  7AE   [8]  29 10 7D 13 5E 4A ED 43
 (000.199909)  can0  48F   [4]  03 0F DB 16
 (000.000057)  can0  48F   [4]  03 0F DB 16
 (000.200016)  can0  378   [0] 
 (000.000059)  can0  378   [0] 
 (000.200069)  can0  105   [2]  54 49
 (000.000044)  can0  105   [2]  54 49
 (000.200123)  can0  7AC   [3]  A6 DA 06
 (000.000060)  can0  7AC   [3]  A6 DA 06
 (000.200176)  can0  050   [8]  37 8B 4E 44 A6 F0 7A 0A
 (000.000064)  can0  050   [8]  37 8B 4E 44 A6 F0 7A 0A
 (000.200061)  can0  702   [8]  11 F2 11 4A C5 79 74 2B
 (000.000063)  can0  702   [8]  11 F2 11 4A C5 79 74 2B
 (000.199971)  can0  556   [3]  F9 13 F0
 (000.000064)  can0  556   [3]  F9 13 F0
 (000.200025)  can0  093   [2]  62 1F
 (000.000056)  can0  093   [2]  62 1F
 (000.200132)  can0  147   [6]  49 38 3B 65 BF 4C
 (000.000054)  can0  147   [6]  49 38 3B 65 BF 4C
 (000.199965)  can0  0B6   [0] 
 (000.000055)  can0  0B6   [0] 
 (000.200200)  can0  062   [8]  1F 49 61 6A 0F D8 35 69
 (000.000051)  can0  062   [8]  1F 49 61 6A 0F D8 35 69
 (000.200020)  can0  51F   [5]  65 B6 C3 01 6F
 (000.000053)  can0  51F   [5]  65 B6 C3 01 6F
 (000.200128)  can0  2A3   [8]  15 26 0D 2B A5 A1 BD 0B
 (000.000055)  can0  2A3   [8]  15 26 0D 2B A5 A1 BD 0B
 (000.200025)  can0  70C   [7]  6A 1B 32 37 62 EC 78
 (000.000048)  can0  70C   [7]  6A 1B 32 37 62 EC 78
 (000.199994)  can0  76A   [3]  66 C1 E0
 (000.000050)  can0  76A   [3]  66 C1 E0
 (000.200151)  can0  386   [8]  20 CD B8 05 CD 5C BB 5C
 (000.000050)  can0  386   [8]  20 CD B8 05 CD 5C BB 5C
 (000.200110)  can0  72F   [8]  8C A9 CD 12 E5 EF A3 57
 (000.000059)  can0  72F   [8]  8C A9 CD 12 E5 EF A3 57
 (000.200003)  can0  0C9   [4]  A0 71 58 28
 (000.000061)  can0  0C9   [4]  A0 71 58 28
 (000.200139)  can0  350   [8]  3A C1 07 79 70 B0 3A 1F
 (000.000059)  can0  350   [8]  3A C1 07 79 70 B0 3A 1F
 (000.199934)  can0  684   [0] 
 (000.000062)  can0  684   [0] 
 (000.200154)  can0  13D   [5]  CD 8A 55 45 49
 (000.000061)  can0  13D   [5]  CD 8A 55 45 49
 (000.200106)  can0  41C   [7]  AC 14 78 0D 86 4B CE
 (000.000064)  can0  41C   [7]  AC 14 78 0D 86 4B CE
 (000.199968)  can0  59B   [2]  84 F3
 (000.000060)  can0  59B   [2]  84 F3
 (000.200116)  can0  6DB   [4]  EE 85 F4 7B
 (000.000063)  can0  6DB   [4]  EE 85 F4 7B
 (000.200116)  can0  60D   [8]  EF B5 98 5A D6 4E A9 57
 (000.000058)  can0  60D   [8]  EF B5 98 5A D6 4E A9 57
 (000.200091)  can0  13E   [8]  01 38 7B 67 8E 74 7E 2B
 (000.000057)  can0  13E   [8]  01 38 7B 67 8E 74 7E 2B
 (000.200057)  can0  24E   [8]  FE 24 B9 4A D2 C0 CC 0B
 (000.000059)  can0  24E   [8]  FE 24 B9 4A D2 C0 CC 0B
 (000.200095)  can0  0DC   [8]  FA A9 64 45 19 2A 2C 1C
 (000.000059)  can0  0DC   [8]  FA A9 64 45 19 2A 2C 1C
 (000.200029)  can0  6D3   [7]  62 52 2B 68 EF 3A 59
 (000.000052)  can0  6D3   [7]  62 52 2B 68 EF 3A 59
 (000.200105)  can0  2FE   [8]  75 86 27 7E 99 B0 EB 45
 (000.000056)  can0  2FE   [8]  75 86 27 7E 99 B0 EB 45
 (000.200164)  can0  521   [8]  BA D9 24 65 FC F3 8A 22
 (000.000103)  can0  521   [8]  BA D9 24 65 FC F3 8A 22
 (000.199920)  can0  29D   [8]  07 BA 7F 25 AA 00 D2 16
 (000.000047)  can0  29D   [8]  07 BA 7F 25 AA 00 D2 16
 (000.200013)  can0  722   [6]  80 4F 7B 6E 60 A0
 (000.000032)  can0  722   [6]  80 4F 7B 6E 60 A0
 (000.199995)  can0  786   [2]  EF 14
 (000.000030)  can0  786   [2]  EF 14
 (000.200330)  can0  0BE   [8]  A7 3A 81 24 9A F1 C7 11
 (000.000053)  can0  0BE   [8]  A7 3A 81 24 9A F1 C7 11
 (000.199860)  can0  4CB   [1]  B3
 (000.000042)  can0  4CB   [1]  B3
 (000.200153)  can0  168   [5]  8D 96 FD 5E 66
 (000.000051)  can0  168   [5]  8D 96 FD 5E 66
 (000.200025)  can0  524   [3]  00 A5 CD
 (000.000039)  can0  524   [3]  00 A5 CD
 (000.200167)  can0  6FC   [8]  41 06 4A 55 9A D1 71 01
 (000.000043)  can0  6FC   [8]  41 06 4A 55 9A D1 71 01
 (000.200076)  can0  663   [8]  44 D2 43 18 85 6D E7 77
 (000.000041)  can0  663   [8]  44 D2 43 18 85 6D E7 77
 (000.200076)  can0  03F   [5]  E6 0D 6E 0B C5
 (000.000051)  can0  03F   [5]  E6 0D 6E 0B C5
 (000.200075)  can0  147   [5]  99 41 A0 16 05
 (000.000057)  can0  147   [5]  99 41 A0 16 05
 (000.199988)  can0  4C2   [0] 
 (000.000057)  can0  4C2   [0] 
 (000.200134)  can0  0E1   [2]  2C FD
 (000.000065)  can0  0E1   [2]  2C FD
 (000.200181)  can0  567   [8]  B0 6E 89 15 8B 7A CD 74
 (000.000051)  can0  567   [8]  B0 6E 89 15 8B 7A CD 74
 (000.199927)  can0  0BD   [0] 
 (000.000055)  can0  0BD   [0] 
 (000.200095)  can0  26A   [2]  53 19
 (000.000050)  can0  26A   [2]  53 19
 (000.200181)  can0  35A   [8]  53 DE 3C 7E 99 83 82 72
 (000.000049)  can0  35A   [8]  53 DE 3C 7E 99 83 82 72
 (000.200048)  can0  55D   [8]  5E 4B 6E 70 A4 B6 CA 3C
 (000.000048)  can0  55D   [8]  5E 4B 6E 70 A4 B6 CA 3C
 (000.200085)  can0  70E   [8]  A9 E0 F9 4F D0 6B 4F 28
 (000.000041)  can0  70E   [8]  A9 E0 F9 4F D0 6B 4F 28
 (000.200092)  can0  138   [8]  5E 0D C5 10 1A 6A 37 67
 (000.000042)  can0  138   [8]  5E 0D C5 10 1A 6A 37 67
 (000.200074)  can0  39A   [8]  63 E4 DE 00 01 D9 E6 30
 (000.000039)  can0  39A   [8]  63 E4 DE 00 01 D9 E6 30
 (000.200006)  can0  645   [3]  8D 53 B4
 (000.000042)  can0  645   [3]  8D 53 B4
 (000.200224)  can0  6C3   [8]  BB 96 D3 41 2E F9 08 6C
 (000.000053)  can0  6C3   [8]  BB 96 D3 41 2E F9 08 6C
 (000.200068)  can0  36F   [8]  FB 69 5E 72 CA C6 B7 41
 (000.000050)  can0  36F   [8]  FB 69 5E 72 CA C6 B7 41
 (000.200092)  can0  3A7   [8]  63 4A 3A 34 04 A9 50 3C
 (000.000053)  can0  3A7   [8]  63 4A 3A 34 04 A9 50 3C
 (000.199980)  can0  487   [2]  A8 5F
 (000.000054)  can0  487   [2]  A8 5F
 (000.200071)  can0  2BA   [1]  66
 (000.000052)  can0  2BA   [1]  66
 (000.200143)  can0  499   [4]  0C 96 1E 55
 (000.000054)  can0  499   [4]  0C 96 1E 55
 (000.200020)  can0  74F   [0] 
 (000.000050)  can0  74F   [0] 
 (000.200102)  can0  583   [1]  96
 (000.000052)  can0  583   [1]  96
 (000.200111)  can0  51F   [2]  75 2D
 (000.000053)  can0  51F   [2]  75 2D
 (000.200049)  can0  361   [0] 
 (000.000052)  can0  361   [0] 
 (000.200233)  can0  7BF   [8]  0C 40 C7 3D 46 14 6E 23
 (000.000053)  can0  7BF   [8]  0C 40 C7 3D 46 14 6E 23
 (000.200021)  can0  77E   [4]  DC 57 D2 71
 (000.000051)  can0  77E   [4]  DC 57 D2 71
 (000.200027)  can0  005   [2]  2A E6
 (000.000047)  can0  005   [2]  2A E6
 (000.200216)  can0  406   [7]  D1 8C E0 43 56 8B 56
 (000.000053)  can0  406   [7]  D1 8C E0 43 56 8B 56
 (000.200019)  can0  6A7   [5]  EA F0 A4 58 2A
 (000.000046)  can0  6A7   [5]  EA F0 A4 58 2A
 (000.200005)  can0  2C7   [1]  71
 (000.000050)  can0  2C7   [1]  71
 (000.200142)  can0  0D3   [6]  74 E0 BB 74 34 EC
 (000.000043)  can0  0D3   [6]  74 E0 BB 74 34 EC
 (000.200117)  can0  557   [8]  3C 83 2D 02 16 9D 98 41
 (000.000041)  can0  557   [8]  3C 83 2D 02 16 9D 98 41
 (000.200071)  can0  189   [8]  5C B1 06 65 07 31 82 22
 (000.000041)  can0  189   [8]  5C B1 06 65 07 31 82 22
 (000.200090)  can0  2FC   [8]  3F EB A9 5C 01 43 CF 76
 (000.000043)  can0  2FC   [8]  3F EB A9 5C 01 43 CF 76
 (000.200113)  can0  07A   [8]  9F 5F CD 34 81 D4 5D 2F
 (000.000052)  can0  07A   [8]  9F 5F CD 34 81 D4 5D 2F
 (000.200068)  can0  5A0   [0] 
 (000.000092)  can0  5A0   [0] 
 (000.199911)  can0  275   [1]  72
 (000.000032)  can0  275   [1]  72
 (000.200105)  can0  642   [3]  22 25 65
 (000.000037)  can0  642   [3]  22 25 65
 (000.200134)  can0  6CA   [7]  49 D3 B2 17 21 E4 AC
 (000.000031)  can0  6CA   [7]  49 D3 B2 17 21 E4 AC
 (000.200125)  can0  564   [5]  37 81 45 68 ED
 (000.000055)  can0  564   [5]  37 81 45 68 ED
 (000.200066)  can0  1CD   [3]  F4 67 FE
 (000.000061)  can0  1CD   [3]  F4 67 FE
 (000.200069)  can0  3CC   [3]  CA BF 7B
 (000.000064)  can0  3CC   [3]  CA BF 7B
 (000.200151)  can0  49C   [8]  C7 20 E2 12 3D 72 47 04
 (000.000062)  can0  49C   [8]  C7 20 E2 12 3D 72 47 04
 (000.200079)  can0  3D9   [8]  84 B6 58 59 4F CE 4E 68
 (000.000061)  can0  3D9   [8]  84 B6 58 59 4F CE 4E 68
 (000.200085)  can0  160   [6]  8B 03 CE 32 A2 C7
 (000.000075)  can0  160   [6]  8B 03 CE 32 A2 C7
 (000.200073)  can0  7DA   [8]  B8 AE 6B 11 A4 E6 8E 2A
 (000.000061)  can0  7DA   [8]  B8 AE 6B 11 A4 E6 8E 2A
 (000.199973)  can0  645   [1]  C5
 (000.000074)  can0  645   [1]  C5
 (000.200145)  can0  087   [8]  96 02 3B 27 54 F2 D3 1C
 (000.000056)  can0  087   [8]  96 02 3B 27 54 F2 D3 1C
 (000.200062)  can0  68F   [8]  1E 6F 80 6D 5B BA F2 2A
 (000.000055)  can0  68F   [8]  1E 6F 80 6D 5B BA F2 2A
 (000.200049)  can0  5BD   [8]  A2 06 77 0E 59 E2 42 48
 (000.000052)  can0  5BD   [8]  A2 06 77 0E 59 E2 42 48
 (000.200096)  can0  652   [8]  96 54 8A 4C 2B 5A 3C 26
 (000.000057)  can0  652   [8]  96 54 8A 4C 2B 5A 3C 26
 (000.200062)  can0  008   [8]  7A 28 8B 0E 68 79 DF 1C
 (000.000052)  can0  008   [8]  7A 28 8B 0E 68 79 DF 1C
 (000.200033)  can0  211   [6]  0A 41 4F 17 EB 89
 (000.000049)  can0  211   [6]  0A 41 4F 17 EB 89
 (000.200012)  can0  4B4   [2]  8F 70
 (000.000051)  can0  4B4   [2]  8F 70
 (000.200137)  can0  1C4   [4]  A2 4E 9F 26
 (000.000064)  can0  1C4   [4]  A2 4E 9F 26
 (000.200144)  can0  750   [8]  9F 3C AC 31 E0 05 4A 6C
 (000.000060)  can0  750   [8]  9F 3C AC 31 E0 05 4A 6C
 (000.200074)  can0  3C2   [8]  3B C0 3C 17 7F 79 F5 5B
 (000.000060)  can0  3C2   [8]  3B C0 3C 17 7F 79 F5 5B
 (000.200071)  can0  2A6   [8]  D8 5B 38 24 F8 28 6E 05
 (000.000061)  can0  2A6   [8]  D8 5B 38 24 F8 28 6E 05
 (000.200059)  can0  647   [8]  23 83 AA 2B 4F 96 FC 24
 (000.000057)  can0  647   [8]  23 83 AA 2B 4F 96 FC 24
 (000.200067)  can0  38A   [8]  B7 0F DC 41 9B 85 83 2A
 (000.000055)  can0  38A   [8]  B7 0F DC 41 9B 85 83 2A
 (000.199978)  can0  7A4   [1]  87
 (000.000061)  can0  7A4   [1]  87
 (000.200159)  can0  084   [6]  51 AF FB 38 48 B2
 (000.000064)  can0  084   [6]  51 AF FB 38 48 B2
 (000.200013)  can0  36B   [3]  93 FC 97
 (000.000059)  can0  36B   [3]  93 FC 97
 (000.200065)  can0  72B   [2]  9B 48
 (000.000058)  can0  72B   [2]  9B 48
 (000.200175)  can0  4F0   [7]  6C 84 7E 1F 96 BF 99
 (000.000060)  can0  4F0   [7]  6C 84 7E 1F 96 BF 99
 (000.200014)  can0  7B4   [4]  8E E8 07 13
 (000.000060)  can0  7B4   [4]  8E E8 07 13
 (000.199997)  can0  0B3   [1]  4A
 (000.000053)  can0  0B3   [1]  4A
 (000.200098)  can0  74F   [1]  D9
 (000.000060)  can0  74F   [1]  D9
 (000.200064)  can0  4C3   [0] 
 (000.000065)  can0  4C3   [0] 
 (000.200267)  can0  176   [8]  8F A7 DC 4C E1 1C 39 67
 (000.000069)  can0  176   [8]  8F A7 DC 4C E1 1C 39 67
 (000.200084)  can0  08F   [2]  9D 5F
 (000.000077)  can0  08F   [2]  9D 5F
 (000.200036)  can0  554   [8]  A7 22 27 39 44 C2 29 09
 (000.000031)  can0  554   [8]  A7 22 27 39 44 C2 29 09
 (000.199985)  can0  10F   [3]  DA 81 C3
 (000.000035)  can0  10F   [3]  DA 81 C3
 (000.200150)  can0  758   [8]  BF 3E 24 53 0B 18 D6 50
 (000.000035)  can0  758   [8]  BF 3E 24 53 0B 18 D6 50
 (000.200124)  can0  61A   [8]  49 64 F5 1B 69 ED 65 61
 (000.000053)  can0  61A   [8]  49 64 F5 1B 69 ED 65 61
 (000.199991)  can0  70B   [2]  5D DC
 (000.000054)  can0  70B   [2]  5D DC
 (000.200157)  can0  782   [8]  15 A1 B2 3D F8 78 B9 67
 (000.000054)  can0  782   [8]  15 A1 B2 3D F8 78 B9 67
 (000.199992)  can0  245   [4]  DA 95 F2 4E
 (000.000048)  can0  245   [4]  DA 95 F2 4E
 (000.200120)  can0  4C6   [7]  8F A2 C3 2B 1B CA BC
 (000.000047)  can0  4C6   [7]  8F A2 C3 2B 1B CA BC
 (000.200072)  can0  5AF   [6]  5F 8C E6 18 BF 4E
 (000.000047)  can0  5AF   [6]  5F 8C E6 18 BF 4E
 (000.200114)  can0  44A   [8]  83 CF 2D 26 A2 F3 EC 59
 (000.000053)  can0  44A   [8]  83 CF 2D 26 A2 F3 EC 59
 (000.199992)  can0  0A2   [2]  AD 0B
 (000.000063)  can0  0A2   [2]  AD 0B
 (000.200238)  can0  14C   [6]  26 3C 59 23 58 98
 (000.000057)  can0  14C   [6]  26 3C 59 23 58 98
 (000.199929)  can0  618   [3]  26 44 9A
 (000.000056)  can0  618   [3]  26 44 9A
 (000.200167)  can0  02B   [8]  93 36 F9 21 70 D2 A1 6C
 (000.000058)  can0  02B   [8]  93 36 F9 21 70 D2 A1 6C
 (000.200079)  can0  5E0   [8]  45 5D C7 22 A7 1A E0 42
 (000.000057)  can0  5E0   [8]  45 5D C7 22 A7 1A E0 42
 (000.200005)  can0  1E4   [4]  C2 E4 9C 52
 (000.000060)  can0  1E4   [4]  C2 E4 9C 52
 (000.200028)  can0  50A   [1]  52
 (000.000056)  can0  50A   [1]  52
 (000.200149)  can0  75B   [5]  F6 24 F3 4A FE
 (000.000057)  can0  75B   [5]  F6 24 F3 4A FE
 (000.200071)  can0  418   [4]  BA 46 96 36
 (000.000057)  can0  418   [4]  BA 46 96 36
 (000.200009)  can0  09A   [0] 
 (000.000055)  can0  09A   [0] 
 (000.200143)  can0  363   [3]  4D 04 FF
 (000.000055)  can0  363   [3]  4D 04 FF
 (000.200027)  can0  71F   [0] 
 (000.000051)  can0  71F   [0] 
 (000.200076)  can0  74D   [4]  A6 37 7D 0D
 (000.000039)  can0  74D   [4]  A6 37 7D 0D
 (000.200129)  can0  318   [8]  C5 28 5A 1C 23 A0 34 63
 (000.000034)  can0  318   [8]  C5 28 5A 1C 23 A0 34 63
 (000.200044)  can0  58A   [7]  77 D1 3A 54 E5 0C CB
 (000.000035)  can0  58A   [7]  77 D1 3A 54 E5 0C CB
 (000.200083)  can0  4ED   [8]  E3 04 6E 5B 05 E1 16 66
 (000.000033)  can0  4ED   [8]  E3 04 6E 5B 05 E1 16 66
 (000.200152)  can0  712   [8]  69 0E EC 04 AC C7 52 51
 (000.000052)  can0  712   [8]  69 0E EC 04 AC C7 52 51
 (000.200024)  can0  67E   [6]  5F 0E 12 66 E2 69
 (000.000055)  can0  67E   [6]  5F 0E 12 66 E2 69
 (000.200097)  can0  609   [8]  71 15 E4 10 28 CD FA 30
 (000.000046)  can0  609   [8]  71 15 E4 10 28 CD FA 30
 (000.199926)  can0  58D   [0] 
 (000.000047)  can0  58D   [0] 
 (000.200229)  can0  6B5   [8]  0C 1E D4 57 CD 49 43 60
 (000.000051)  can0  6B5   [8]  0C 1E D4 57 CD 49 43 60
 (000.199925)  can0  636   [1]  F0
 (000.000046)  can0  636   [1]  F0
 (000.200218)  can0  5E9   [8]  A6 D8 97 1B D6 72 1F 57
 (000.000058)  can0  5E9   [8]  A6 D8 97 1B D6 72 1F 57
 (000.200065)  can0  1D6   [8]  DB 53 36 3D E8 D8 C4 4B
 (000.000057)  can0  1D6   [8]  DB 53 36 3D E8 D8 C4 4B
 (000.199988)  can0  127   [4]  94 A0 17 1D
 (000.000050)  can0  127   [4]  94 A0 17 1D
 (000.200078)  can0  66A   [4]  88 61 17 34
 (000.000046)  can0  66A   [4]  88 61 17 34
 (000.200273)  can0  1A1   [8]  9B E1 1C 76 2E 0F 44 5E
 (000.000053)  can0  1A1   [8]  9B E1 1C 76 2E 0F 44 5E
 (000.199869)  can0  269   [3]  09 64 31
 (000.000047)  can0  269   [3]  09 64 31
 (000.200113)  can0  591   [6]  EC C2 13 25 C7 2B
 (000.000042)  can0  591   [6]  EC C2 13 25 C7 2B
 (000.200201)  can0  0E7   [8]  88 F7 C5 18 D0 E6 6B 19
 (000.000067)  can0  0E7   [8]  88 F7 C5 18 D0 E6 6B 19
 (000.200111)  can0  044   [8]  A6 59 8B 70 1A 1A 1F 37
 (000.000070)  can0  044   [8]  A6 59 8B 70 1A 1A 1F 37
 (000.199940)  can0  5B7   [1]  02
 (000.000059)  can0  5B7   [1]  02
 (000.200081)  can0  7C6   [7]  85 CE 6B 29 30 46 CC
 (000.000036)  can0  7C6   [7]  85 CE 6B 29 30 46 CC
 (000.200092)  can0  28B   [8]  A4 5A EE 10 2C 04 60 5B
 (000.000031)  can0  28B   [8]  A4 5A EE 10 2C 04 60 5B
 (000.200072)  can0  706   [8]  5A 13 A4 39 6F B1 CA 36
 (000.000036)  can0  706   [8]  5A 13 A4 39 6F B1 CA 36
 (000.199999)  can0  002   [4]  8E 2A 9B 7B
 (000.000037)  can0  002   [4]  8E 2A 9B 7B
 (000.200228)  can0  17A   [8]  5B 21 83 57 61 C2 0E 10
 (000.000049)  can0  17A   [8]  5B 21 83 57 61 C2 0E 10
 (000.200006)  can0  256   [3]  32 A9 7A
 (000.000063)  can0  256   [3]  32 A9 7A
 (000.200161)  can0  111   [8]  B5 1C 98 40 C8 96 0A 50
 (000.000050)  can0  111   [8]  B5 1C 98 40 C8 96 0A 50
 (000.200077)  can0  05A   [8]  A7 6D 78 04 20 C0 AB 37
 (000.000053)  can0  05A   [8]  A7 6D 78 04 20 C0 AB 37
 (000.200074)  can0  34F   [8]  50 06 78 03 DA E5 9C 06
 (000.000052)  can0  34F   [8]  50 06 78 03 DA E5 9C 06
 (000.199993)  can0  439   [4]  06 EA FC 61
 (000.000050)  can0  439   [4]  06 EA FC 61
 (000.200061)  can0  534   [0] 
 (000.000058)  can0  534   [0] 
 (000.200204)  can0  4C4   [8]  CA 9A BB 07 3E 6E 51 19
 (000.000053)  can0  4C4   [8]  CA 9A BB 07 3E 6E 51 19
 (000.200019)  can0  4B7   [5]  A0 30 60 29 0D
 (000.000047)  can0  4B7   [5]  A0 30 60 29 0D
 (000.200016)  can0  508   [2]  A8 79
 (000.000047)  can0  508   [2]  A8 79
 (000.200169)  can0  4AA   [8]  E1 54 39 44 04 8D A8 34
 (000.000052)  can0  4AA   [8]  E1 54 39 44 04 8D A8 34
 (000.200122)  can0  616   [8]  24 4D 54 6C 65 49 3A 7B
 (000.000057)  can0  616   [8]  24 4D 54 6C 65 49 3A 7B
 (000.200062)  can0  6B5   [5]  3F 2F D7 01 EF
 (000.000060)  can0  6B5   [5]  3F 2F D7 01 EF
 (000.200067)  can0  469   [5]  2E 7E E3 2F 9D
 (000.000059)  can0  469   [5]  2E 7E E3 2F 9D
 (000.200123)  can0  6A5   [8]  D4 F6 D5 33 6A 8B EB 3A
 (000.000057)  can0  6A5   [8]  D4 F6 D5 33 6A 8B EB 3A
 (000.200116)  can0  21A   [8]  A8 F9 3C 54 D1 0E DB 75
 (000.000071)  can0  21A   [8]  A8 F9 3C 54 D1 0E DB 75
 (000.200054)  can0  5C3   [8]  DF 85 10 00 CB 22 58 6A
 (000.000060)  can0  5C3   [8]  DF 85 10 00 CB 22 58 6A
 (000.200072)  can0  41A   [7]  E4 E0 86 5E C5 E0 58
 (000.000059)  can0  41A   [7]  E4 E0 86 5E C5 E0 58
 (000.200008)  can0  5E5   [5]  C9 6D 01 72 FB
 (000.000052)  can0  5E5   [5]  C9 6D 01 72 FB
 (000.200140)  can0  04E   [8]  60 85 02 7B 04 F7 07 62
 (000.000052)  can0  04E   [8]  60 85 02 7B 04 F7 07 62
 (000.200082)  can0  663   [8]  F3 61 05 64 CC C2 54 52
 (000.000053)  can0  663   [8]  F3 61 05 64 CC C2 54 52
 (000.199940)  can0  5E4   [1]  6A
 (000.000052)  can0  5E4   [1]  6A
 (000.200215)  can0  2FF   [8]  F4 6F 0E 1B 19 55 5D 1D
 (000.000053)  can0  2FF   [8]  F4 6F 0E 1B 19 55 5D 1D
 (000.200098)  can0  4DC   [8]  EB 63 38 13 9F EA 30 7C
 (000.000051)  can0  4DC   [8]  EB 63 38 13 9F EA 30 7C
 (000.200104)  can0  3E5   [8]  6A 0D 89 66 FF 97 60 3D
 (000.000060)  can0  3E5   [8]  6A 0D 89 66 FF 97 60 3D
 (000.200055)  can0  151   [8]  C4 78 B9 7A 37 7F 0D 0F
 (000.000053)  can0  151   [8]  C4 78 B9 7A 37 7F 0D 0F
 (000.200077)  can0  413   [8]  32 BB D5 0E 62 1C 42 53
 (000.000061)  can0  413   [8]  32 BB D5 0E 62 1C 42 53
 (000.199959)  can0  17C   [3]  66 13 4A
 (000.000046)  can0  17C   [3]  66 13 4A
 (000.200249)  can0  532   [8]  AB 72 87 6B 17 C3 5F 67
 (000.000064)  can0  532   [8]  AB 72 87 6B 17 C3 5F 67
 (000.199875)  can0  57A   [5]  A1 A7 82 47 79
 (000.000031)  can0  57A   [5]  A1 A7 82 47 79
 (000.200063)  can0  253   [5]  93 CD 12 73 2F
 (000.000035)  can0  253   [5]  93 CD 12 73 2F
 (000.200130)  can0  131   [8]  CE 19 E1 60 16 15 C5 3E
 (000.000035)  can0  131   [8]  CE 19 E1 60 16 15 C5 3E
 (000.200141)  can0  348   [8]  16 AD 25 7C 99 04 9C 40
 (000.000051)  can0  348   [8]  16 AD 25 7C 99 04 9C 40
 (000.200052)  can0  586   [8]  D0 83 A9 4F 9A 39 4A 74
 (000.000048)  can0  586   [8]  D0 83 A9 4F 9A 39 4A 74
 (000.199985)  can0  468   [3]  FC 55 8C
 (000.000047)  can0  468   [3]  FC 55 8C
 (000.200047)  can0  796   [2]  C3 5D
 (000.000044)  can0  796   [2]  C3 5D
 (000.200335)  can0  6BB   [8]  DF 37 69 56 35 34 5E 43
 (000.000058)  can0  6BB   [8]  DF 37 69 56 35 34 5E 43
 (000.199859)  can0  784   [0] 
 (000.000056)  can0  784   [0] 
 (000.200105)  can0  715   [2]  07 19
 (000.000056)  can0  715   [2]  07 19
 (000.200145)  can0  3C0   [6]  5D 8D 1E 11 08 C7
 (000.000055)  can0  3C0   [6]  5D 8D 1E 11 08 C7
 (000.200013)  can0  20E   [3]  A1 CB A1
 (000.000053)  can0  20E   [3]  A1 CB A1
 (000.200064)  can0  04E   [2]  2F A9
 (000.000052)  can0  04E   [2]  2F A9
 (000.200171)  can0  675   [8]  9B 1A 68 16 0B 0E 22 03
 (000.000058)  can0  675   [8]  9B 1A 68 16 0B 0E 22 03
 (000.200082)  can0  08D   [8]  D3 82 2B 72 48 47 7D 7C
 (000.000050)  can0  08D   [8]  D3 82 2B 72 48 47 7D 7C
 (000.199968)  can0  0CD   [3]  7D 7B DB
 (000.000046)  can0  0CD   [3]  7D 7B DB
 (000.200162)  can0  233   [8]  2A 8A C4 36 49 91 FD 66
 (000.000047)  can0  233   [8]  2A 8A C4 36 49 91 FD 66
 (000.199959)  can0  26E   [1]  90
 (000.000046)  can0  26E   [1]  90
 (000.200181)  can0  607   [8]  36 15 8D 23 16 30 A0 2A
 (000.000043)  can0  607   [8]  36 15 8D 23 16 30 A0 2A
 (000.200103)  can0  161   [8]  AB 9F 4A 58 AF 31 DD 5B
 (000.000060)  can0  161   [8]  AB 9F 4A 58 AF 31 DD 5B
 (000.200093)  can0  04A   [8]  65 9E 9A 43 BF BE 44 67
 (000.000055)  can0  04A   [8]  65 9E 9A 43 BF BE 44 67
 (000.199941)  can0  005   [0] 
 (000.000057)  can0  005   [0] 
 (000.200308)  can0  15F   [8]  DA F7 94 46 2C 7A F2 49
 (000.000075)  can0  15F   [8]  DA F7 94 46 2C 7A F2 49
 (000.199911)  can0  250   [7]  7E 1A 82 6C 84 A4 A7
 (000.000035)  can0  250   [7]  7E 1A 82 6C 84 A4 A7
 (000.200081)  can0  384   [8]  CD 35 A5 72 F2 3D 75 44
 (000.000031)  can0  384   [8]  CD 35 A5 72 F2 3D 75 44
 (000.200072)  can0  7DA   [8]  21 8C FC 3B E1 1D 60 5C
 (000.000032)  can0  7DA   [8]  21 8C FC 3B E1 1D 60 5C
 (000.200142)  can0  64A   [7]  F7 4D 00 07 AB A7 2B
 (000.000051)  can0  64A   [7]  F7 4D 00 07 AB A7 2B
 (000.200000)  can0  22F   [2]  5A D9
 (000.000057)  can0  22F   [2]  5A D9
 (000.200040)  can0  67C   [0] 
 (000.000056)  can0  67C   [0] 
 (000.200101)  can0  0C0   [2]  13 2F
 (000.000050)  can0  0C0   [2]  13 2F
 (000.200161)  can0  5A0   [8]  4C DC E0 49 F0 97 97 0F
 (000.000050)  can0  5A0   [8]  4C DC E0 49 F0 97 97 0F
 (000.200085)  can0  245   [8]  74 3C 3F 1B C9 35 C7 33
 (000.000058)  can0  245   [8]  74 3C 3F 1B C9 35 C7 33
 (000.199921)  can0  373   [1]  BB
 (000.000046)  can0  373   [1]  BB
 (000.200200)  can0  19E   [8]  2E 01 FA 08 E9 87 52 30
 (000.000046)  can0  19E   [8]  2E 01 FA 08 E9 87 52 30
 (000.200028)  can0  134   [6]  94 2F 7E 7E 63 23
 (000.000043)  can0  134   [6]  94 2F 7E 7E 63 23
 (000.200139)  can0  4C8   [8]  DD D5 AD 3F 45 73 CF 48
 (000.000045)  can0  4C8   [8]  DD D5 AD 3F 45 73 CF 48
 (000.200028)  can0  0AF   [5]  C6 F1 19 06 6F
 (000.000050)  can0  0AF   [5]  C6 F1 19 06 6F
 (000.200128)  can0  518   [8]  8F 13 BF 5D B8 12 74 5B
 (000.000048)  can0  518   [8]  8F 13 BF 5D B8 12 74 5B
 (000.200069)  can0  7C7   [8]  A8 AA 0B 6B 0C E2 DA 2F
 (000.000048)  can0  7C7   [8]  A8 AA 0B 6B 0C E2 DA 2F
 (000.200056)  can0  6A5   [8]  D5 17 A2 63 18 82 AC 37
 (000.000043)  can0  6A5   [8]  D5 17 A2 63 18 82 AC 37
 (000.199934)  can0  15E   [1]  65
 (000.000041)  can0  15E   [1]  65
 (000.200208)  can0  36D   [4]  E6 92 62 7E
 (000.000067)  can0  36D   [4]  E6 92 62 7E
 (000.200125)  can0  5BA   [8]  05 50 55 27 82 F2 7F 6C
 (000.000060)  can0  5BA   [8]  05 50 55 27 82 F2 7F 6C
 (000.199965)  can0  369   [2]  C7 65
 (000.000056)  can0  369   [2]  C7 65
 (000.200196)  can0  4F7   [8]  88 FD 62 19 0F F2 2B 3B
 (000.000056)  can0  4F7   [8]  88 FD 62 19 0F F2 2B 3B
 (000.200051)  can0  068   [7]  C7 04 A0 16 2F C0 58
 (000.000050)  can0  068   [7]  C7 04 A0 16 2F C0 58
 (000.200006)  can0  0F2   [0] 
 (000.000064)  can0  0F2   [0] 
 (000.200012)  can0  68D   [1]  B0
 (000.000033)  can0  68D   [1]  B0
 (000.200129)  can0  5A2   [5]  E8 FA 35 6A 10
 (000.000030)  can0  5A2   [5]  E8 FA 35 6A 10
 (000.200121)  can0  5A9   [8]  B1 FD A5 47 63 EB 32 03
 (000.000032)  can0  5A9   [8]  B1 FD A5 47 63 EB 32 03
 (000.200089)  can0  049   [6]  E6 DD B2 6F B2 1B
 (000.000045)  can0  049   [6]  E6 DD B2 6F B2 1B
 (000.200119)  can0  398   [8]  CB 67 73 46 90 E0 26 20
 (000.000045)  can0  398   [8]  CB 67 73 46 90 E0 26 20
 (000.199986)  can0  33B   [3]  9F D2 52
 (000.000043)  can0  33B   [3]  9F D2 52
 (000.200158)  can0  66A   [7]  D3 D3 A9 4D 5C 77 BA
 (000.000046)  can0  66A   [7]  D3 D3 A9 4D 5C 77 BA
 (000.200080)  can0  6D7   [8]  F3 5E 7F 72 64 1D 95 7B
 (000.000041)  can0  6D7   [8]  F3 5E 7F 72 64 1D 95 7B
 (000.199990)  can0  020   [3]  4F 0D BB
 (000.000040)  can0  020   [3]  4F 0D BB
 (000.200147)  can0  7B9   [8]  D3 46 33 11 62 CD A0 45
 (000.000039)  can0  7B9   [8]  D3 46 33 11 62 CD A0 45
 (000.200007)  can0  606   [4]  C6 B8 D3 48
 (000.000041)  can0  606   [4]  C6 B8 D3 48
 (000.200225)  can0  23B   [8]  02 02 E4 5A D3 05 D3 1D
 (000.000062)  can0  23B   [8]  02 02 E4 5A D3 05 D3 1D
 (000.200053)  can0  259   [8]  63 E6 F9 3D 95 75 F4 3D
 (000.000050)  can0  259   [8]  63 E6 F9 3D 95 75 F4 3D
 (000.199996)  can0  720   [3]  38 89 45
 (000.000056)  can0  720   [3]  38 89 45
 (000.200148)  can0  06A   [8]  E6 BC E0 4D 41 17 DE 7E
 (000.000048)  can0  06A   [8]  E6 BC E0 4D 41 17 DE 7E
 (000.200091)  can0  31A   [8]  A5 34 73 7A 3B 03 80 30
 (000.000045)  can0  31A   [8]  A5 34 73 7A 3B 03 80 30
 (000.200009)  can0  47D   [4]  FE 78 E7 1D
 (000.000051)  can0  47D   [4]  FE 78 E7 1D
 (000.200007)  can0  22C   [1]  98
 (000.000044)  can0  22C   [1]  98
 (000.200202)  can0  455   [8]  82 C6 AB 4E 90 96 C8 4F
 (000.000044)  can0  455   [8]  82 C6 AB 4E 90 96 C8 4F
 (000.199992)  can0  10A   [4]  64 9C 9B 6D
 (000.000039)  can0  10A   [4]  64 9C 9B 6D
 (000.200198)  can0  251   [7]  F9 E8 71 09 71 01 15
 (000.000048)  can0  251   [7]  F9 E8 71 09 71 01 15
 (000.199918)  can0  3CA   [1]  FB
 (000.000030)  can0  3CA   [1]  FB
 (000.200073)  can0  73D   [1]  75
 (000.000031)  can0  73D   [1]  75
 (000.200183)  can0  7BB   [8]  92 A5 F3 2C 38 04 CD 19
 (000.000034)  can0  7BB   [8]  92 A5 F3 2C 38 04 CD 19
 (000.200047)  can0  20F   [0] 
 (000.000062)  can0  20F   [0] 
 (000.200159)  can0  661   [6]  6E 84 69 6E B7 E2
 (000.000050)  can0  661   [6]  6E 84 69 6E B7 E2
 (000.200048)  can0  465   [1]  47
 (000.000066)  can0  465   [1]  47
 (000.200172)  can0  375   [8]  D3 D8 40 1C C7 45 8C 31
 (000.000053)  can0  375   [8]  D3 D8 40 1C C7 45 8C 31
 (000.200090)  can0  073   [8]  38 47 A1 7D 3D D4 C5 2F
 (000.000054)  can0  073   [8]  38 47 A1 7D 3D D4 C5 2F
 (000.200047)  can0  3FE   [4]  72 A0 E7 7F
 (000.000064)  can0  3FE   [4]  72 A0 E7 7F
 (000.200128)  can0  215   [7]  92 A5 84 38 D0 B1 74
 (000.000093)  can0  215   [7]  92 A5 84 38 D0 B1 74
 (000.200028)  can0  402   [5]  08 B6 41 60 11
 (000.000046)  can0  402   [5]  08 B6 41 60 11
 (000.200047)  can0  1B5   [6]  4C 9A BC 63 17 48
 (000.000046)  can0  1B5   [6]  4C 9A BC 63 17 48
 (000.200114)  can0  07D   [8]  CE 2A 33 2C E2 CC 37 31
 (000.000040)  can0  07D   [8]  CE 2A 33 2C E2 CC 37 31
 (000.200029)  can0  1AC   [5]  51 32 FB 01 21
 (000.000042)  can0  1AC   [5]  51 32 FB 01 21
 (000.200070)  can0  1C1   [5]  E8 C2 6C 27 34
 (000.000044)  can0  1C1   [5]  E8 C2 6C 27 34
 (000.200041)  can0  4F1   [1]  71
 (000.000054)  can0  4F1   [1]  71
 (000.200124)  can0  055   [3]  2A 04 6A
 (000.000056)  can0  055   [3]  2A 04 6A
 (000.200143)  can0  2CB   [8]  3B DC 57 21 CD E6 06 3F
 (000.000043)  can0  2CB   [8]  3B DC 57 21 CD E6 06 3F
 (000.200016)  can0  4E2   [3]  DE DC 02
 (000.000058)  can0  4E2   [3]  DE DC 02
 (000.200172)  can0  0BA   [8]  AE A6 03 0F 37 C9 0A 71
 (000.000044)  can0  0BA   [8]  AE A6 03 0F 37 C9 0A 71
 (000.200060)  can0  5E5   [8]  19 96 42 22 91 FF 20 78
 (000.000048)  can0  5E5   [8]  19 96 42 22 91 FF 20 78
 (000.200093)  can0  592   [8]  B3 7C 01 6E 53 2F 50 76
 (000.000049)  can0  592   [8]  B3 7C 01 6E 53 2F 50 76
 (000.200042)  can0  38F   [8]  87 81 67 1E 81 A0 68 06
 (000.000040)  can0  38F   [8]  87 81 67 1E 81 A0 68 06
 (000.200075)  can0  1BC   [8]  70 A1 C1 60 11 E2 66 01
 (000.000044)  can0  1BC   [8]  70 A1 C1 60 11 E2 66 01
 (000.200041)  can0  6DC   [8]  7C 0C 4A 5C A7 B9 B5 74
 (000.000036)  can0  6DC   [8]  7C 0C 4A 5C A7 B9 B5 74
 (000.200074)  can0  758   [7]  74 A0 BC 33 3A 44 81
 (000.000041)  can0  758   [7]  74 A0 BC 33 3A 44 81
 (000.199963)  can0  2FA   [2]  D1 A2
 (000.000031)  can0  2FA   [2]  D1 A2
 (000.200036)  can0  47C   [0] 
 (000.000028)  can0  47C   [0] 
 (000.200179)  can0  2FC   [4]  F3 89 85 5E
 (000.000039)  can0  2FC   [4]  F3 89 85 5E
 (000.200134)  can0  36F   [6]  E1 BF E2 58 FE 3E
 (000.000041)  can0  36F   [6]  E1 BF E2 58 FE 3E
 (000.200149)  can0  642   [8]  7F DF 4A 22 FE 8F 71 1C
 (000.000052)  can0  642   [8]  7F DF 4A 22 FE 8F 71 1C
 (000.199939)  can0  161   [0] 
 (000.000056)  can0  161   [0] 
 (000.200157)  can0  68B   [8]  E4 11 4E 30 E3 75 52 40
 (000.000040)  can0  68B   [8]  E4 11 4E 30 E3 75 52 40
 (000.200133)  can0  743   [8]  1D BA D3 3A 3D E2 FF 76
 (000.000059)  can0  743   [8]  1D BA D3 3A 3D E2 FF 76
 (000.200052)  can0  7AA   [8]  F2 25 DD 18 26 24 49 48
 (000.000048)  can0  7AA   [8]  F2 25 DD 18 26 24 49 48
 (000.200099)  can0  66E   [8]  88 AE AD 2E 6B C1 C4 31
 (000.000053)  can0  66E   [8]  88 AE AD 2E 6B C1 C4 31
 (000.200090)  can0  5E2   [8]  F9 51 57 14 51 41 58 3A
 (000.000052)  can0  5E2   [8]  F9 51 57 14 51 41 58 3A
 (000.200102)  can0  722   [8]  4F 80 3A 56 64 85 AF 3B
 (000.000060)  can0  722   [8]  4F 80 3A 56 64 85 AF 3B
 (000.200052)  can0  343   [8]  63 15 21 58 A4 3C 13 52
 (000.000048)  can0  343   [8]  63 15 21 58 A4 3C 13 52
 (000.199991)  can0  0BF   [3]  E1 94 AB
 (000.000047)  can0  0BF   [3]  E1 94 AB
 (000.200095)  can0  5FF   [5]  2D 7D 1C 36 42
 (000.000044)  can0  5FF   [5]  2D 7D 1C 36 42
 (000.200129)  can0  11D   [8]  7F 4F E0 5E C7 88 CE 6C
 (000.000044)  can0  11D   [8]  7F 4F E0 5E C7 88 CE 6C
 (000.199962)  can0  438   [1]  EE
 (000.000047)  can0  438   [1]  EE
 (000.200160)  can0  04F   [6]  12 FC 12 45 31 7E
 (000.000047)  can0  04F   [6]  12 FC 12 45 31 7E
 (000.200134)  can0  3F2   [8]  82 BF CA 3E 15 D3 B2 4A
 (000.000050)  can0  3F2   [8]  82 BF CA 3E 15 D3 B2 4A
 (000.199917)  can0  7E6   [1]  79
 (000.000049)  can0  7E6   [1]  79
 (000.200212)  can0  7A0   [8]  CE EF 3B 7D 5F 80 1C 09
 (000.000043)  can0  7A0   [8]  CE EF 3B 7D 5F 80 1C 09
 (000.199934)  can0  54F   [0] 
 (000.000043)  can0  54F   [0] 
 (000.200232)  can0  375   [6]  90 68 79 2C 93 84
 (000.000068)  can0  375   [6]  90 68 79 2C 93 84
 (000.199938)  can0  420   [0] 
 (000.000045)  can0  420   [0] 
 (000.200233)  can0  581   [8]  00 0B 41 44 D0 D5 99 26
 (000.000054)  can0  581   [8]  00 0B 41 44 D0 D5 99 26
 (000.200004)  can0  5BF   [2]  01 54
 (000.000056)  can0  5BF   [2]  01 54
 (000.200095)  can0  51D   [3]  C6 7C 3C
 (000.000056)  can0  51D   [3]  C6 7C 3C
 (000.200017)  can0  355   [0] 
 (000.000057)  can0  355   [0] 
 (000.200216)  can0  31C   [8]  55 73 83 15 6C 38 9F 65
 (000.000051)  can0  31C   [8]  55 73 83 15 6C 38 9F 65
 (000.200075)  can0  4AC   [8]  BA 33 38 2A 22 08 90 25
 (000.000056)  can0  4AC   [8]  BA 33 38 2A 22 08 90 25
 (000.200084)  can0  7D5   [8]  B5 8C 75 10 F5 3B 60 6F
 (000.000059)  can0  7D5   [8]  B5 8C 75 10 F5 3B 60 6F
 (000.200046)  can0  45B   [8]  4E 0C 53 20 DC 81 22 65
 (000.000051)  can0  45B   [8]  4E 0C 53 20 DC 81 22 65
 (000.200072)  can0  458   [8]  AD 57 BC 0B 17 6A 86 65
 (000.000051)  can0  458   [8]  AD 57 BC 0B 17 6A 86 65
 (000.200091)  can0  660   [8]  C8 13 10 47 7E 73 A6 50
 (000.000057)  can0  660   [8]  C8 13 10 47 7E 73 A6 50
 (000.200048)  can0  732   [8]  82 28 09 7A 87 12 7C 1F
 (000.000044)  can0  732   [8]  82 28 09 7A 87 12 7C 1F
 (000.199936)  can0  5CF   [0] 
 (000.000046)  can0  5CF   [0] 
 (000.200084)  can0  0AC   [1]  57
 (000.000047)  can0  0AC   [1]  57
 (000.200103)  can0  3D0   [2]  7B CD
 (000.000053)  can0  3D0   [2]  7B CD
 (000.200036)  can0  15D   [0] 
 (000.000050)  can0  15D   [0] 
 (000.200200)  can0  43F   [8]  94 87 C4 64 97 48 2F 10
 (000.000045)  can0  43F   [8]  94 87 C4 64 97 48 2F 10
 (000.199973)  can0  337   [1]  AE
 (000.000049)  can0  337   [1]  AE
 (000.200154)  can0  2F0   [7]  16 65 13 52 22 4A E9
 (000.000044)  can0  2F0   [7]  16 65 13 52 22 4A E9
 (000.200098)  can0  706   [8]  A9 5C 65 67 D5 BC FD 55
 (000.000043)  can0  706   [8]  A9 5C 65 67 D5 BC FD 55
 (000.200018)  can0  648   [5]  C0 65 0B 0D F4
 (000.000045)  can0  648   [5]  C0 65 0B 0D F4
 (000.200068)  can0  2F7   [8]  4D CC 17 38 C7 4E 7F 2A
 (000.000034)  can0  2F7   [8]  4D CC 17 38 C7 4E 7F 2A
 (000.200067)  can0  42A   [8]  6C C2 BC 49 87 0D 34 0E
 (000.000030)  can0  42A   [8]  6C C2 BC 49 87 0D 34 0E
 (000.200053)  can0  3F8   [6]  3F 13 D6 0D 38 E8
 (000.000038)  can0  3F8   [6]  3F 13 D6 0D 38 E8
 (000.200002)  can0  5EF   [3]  CF 30 2C
 (000.000031)  can0  5EF   [3]  CF 30 2C
 (000.200249)  can0  215   [8]  BF F2 3C 1C 05 05 65 0A
 (000.000059)  can0  215   [8]  BF F2 3C 1C 05 05 65 0A
 (000.200025)  can0  1F5   [5]  27 4F 4E 52 FB
 (000.000057)  can0  1F5   [5]  27 4F 4E 52 FB
 (000.199990)  can0  56D   [0] 
 (000.000058)  can0  56D   [0] 
 (000.200079)  can0  5F5   [0] 
 (000.000057)  can0  5F5   [0] 
 (000.200182)  can0  2A8   [7]  B3 37 2A 4C D2 C6 18
 (000.000050)  can0  2A8   [7]  B3 37 2A 4C D2 C6 18
 (000.200215)  can0  0BF   [8]  59 D4 4C 27 B8 64 B8 30
 (000.000065)  can0  0BF   [8]  59 D4 4C 27 B8 64 B8 30
 (000.199948)  can0  426   [8]  F0 4C B5 59 15 9A 8C 75
 (000.000032)  can0  426   [8]  F0 4C B5 59 15 9A 8C 75
 (000.200084)  can0  26C   [8]  3C 9B 5C 10 81 FC D8 0A
 (000.000035)  can0  26C   [8]  3C 9B 5C 10 81 FC D8 0A
 (000.200058)  can0  13D   [8]  86 01 3E 15 32 0B 6B 2D
 (000.000036)  can0  13D   [8]  86 01 3E 15 32 0B 6B 2D
 (000.200128)  can0  5D0   [8]  2D 0C 25 49 3D CB 56 55
 (000.000051)  can0  5D0   [8]  2D 0C 25 49 3D CB 56 55
 (000.200096)  can0  47D   [8]  F2 CE 74 2A 72 0A 3C 6E
 (000.000060)  can0  47D   [8]  F2 CE 74 2A 72 0A 3C 6E
 (000.200040)  can0  58E   [8]  5F F3 E6 0F 36 58 1B 62
 (000.000042)  can0  58E   [8]  5F F3 E6 0F 36 58 1B 62
 (000.199969)  can0  093   [2]  09 1F
 (000.000042)  can0  093   [2]  09 1F
 (000.200062)  can0  532   [2]  0A 86
 (000.000038)  can0  532   [2]  0A 86
 (000.200184)  can0  2FB   [8]  6D 2B C6 55 67 5D 61 7F
 (000.000042)  can0  2FB   [8]  6D 2B C6 55 67 5D 61 7F
 (000.200234)  can0  0BA   [8]  E8 59 3A 0A F7 B1 EA 04
 (000.000070)  can0  0BA   [8]  E8 59 3A 0A F7 B1 EA 04
 (000.200029)  can0  4A5   [8]  2A BD 55 32 76 3A A6 2D
 (000.000054)  can0  4A5   [8]  2A BD 55 32 76 3A A6 2D
 (000.200051)  can0  41B   [7]  B3 05 FD 02 98 A8 44
 (000.000063)  can0  41B   [7]  B3 05 FD 02 98 A8 44
 (000.200155)  can0  355   [6]  0A B3 80 16 E3 80
 (000.000078)  can0  355   [6]  0A B3 80 16 E3 80
 (000.200070)  can0  642   [8]  19 D9 12 52 D5 5E F4 6A
 (000.000060)  can0  642   [8]  19 D9 12 52 D5 5E F4 6A
 (000.200017)  can0  17C   [2]  27 80
 (000.000075)  can0  17C   [2]  27 80
 (000.200082)  can0  385   [2]  06 88
 (000.000068)  can0  385   [2]  06 88
 (000.200051)  can0  12C   [3]  E7 23 CD
 (000.000050)  can0  12C   [3]  E7 23 CD
 (000.200194)  can0  21D   [8]  DE DB B4 5F C3 CE 4F 23
 (000.000056)  can0  21D   [8]  DE DB B4 5F C3 CE 4F 23
 (000.200085)  can0  13D   [8]  39 09 F6 50 58 85 84 77
 (000.000052)  can0  13D   [8]  39 09 F6 50 58 85 84 77
 (000.200058)  can0  25F   [8]  F0 2D C9 1F B4 F5 DC 43
 (000.000050)  can0  25F   [8]  F0 2D C9 1F B4 F5 DC 43
 (000.200132)  can0  392   [8]  97 76 D4 33 D4 91 76 69
 (000.000062)  can0  392   [8]  97 76 D4 33 D4 91 76 69
 (000.199859)  can0  764   [1]  A9
 (000.000035)  can0  764   [1]  A9
 (000.200070)  can0  7D3   [1]  8E
 (000.000034)  can0  7D3   [1]  8E
 (000.200113)  can0  703   [4]  D8 F9 61 0A
 (000.000032)  can0  703   [4]  D8 F9 61 0A
 (000.200236)  can0  307   [8]  16 7A 01 3F 25 05 4A 63
 (000.000050)  can0  307   [8]  16 7A 01 3F 25 05 4A 63
 (000.199972)  can0  38E   [4]  E8 D3 99 06
 (000.000050)  can0  38E   [4]  E8 D3 99 06
 (000.200153)  can0  6FC   [1]  23
 (000.000054)  can0  6FC   [1]  23
 (000.200047)  can0  40D   [3]  10 47 23
 (000.000062)  can0  40D   [3]  10 47 23
 (000.200152)  can0  10E   [7]  74 61 5E 16 72 90 FF
 (000.000057)  can0  10E   [7]  74 61 5E 16 72 90 FF
 (000.200096)  can0  558   [8]  52 E9 29 1C 2C 55 0D 0F
 (000.000060)  can0  558   [8]  52 E9 29 1C 2C 55 0D 0F
 (000.199929)  can0  2EF   [0] 
 (000.000059)  can0  2EF   [0] 
 (000.200231)  can0  074   [8]  21 8A CC 00 7B 9B C1 6A
 (000.000054)  can0  074   [8]  21 8A CC 00 7B 9B C1 6A
 (000.200072)  can0  01C   [7]  A0 A0 0B 4E AB 3B CB
 (000.000056)  can0  01C   [7]  A0 A0 0B 4E AB 3B CB
 (000.200126)  can0  22B   [8]  76 B0 81 62 27 49 45 0F
 (000.000078)  can0  22B   [8]  76 B0 81 62 27 49 45 0F
 (000.200039)  can0  1A9   [8]  83 9A 8B 4D B7 3D B8 57
 (000.000058)  can0  1A9   [8]  83 9A 8B 4D B7 3D B8 57
 (000.200042)  can0  2AD   [3]  57 0D A0
 (000.000074)  can0  2AD   [3]  57 0D A0
 (000.200123)  can0  73A   [8]  2D 6C 0E 34 93 AC 85 41
 (000.000052)  can0  73A   [8]  2D 6C 0E 34 93 AC 85 41
 (000.200117)  can0  0E9   [8]  BF 01 93 50 D8 83 C8 55
 (000.000064)  can0  0E9   [8]  BF 01 93 50 D8 83 C8 55
 (000.200032)  can0  65F   [3]  CA BD 5D
 (000.000068)  can0  65F   [3]  CA BD 5D
 (000.200257)  can0  4A0   [8]  4F 3A CA 42 BD AC 90 2C
 (000.000077)  can0  4A0   [8]  4F 3A CA 42 BD AC 90 2C
 (000.199947)  can0  423   [8]  68 E8 5B 7C 4F A6 7C 11
 (000.000043)  can0  423   [8]  68 E8 5B 7C 4F A6 7C 11
 (000.200047)  can0  778   [8]  76 EF C1 20 21 A1 B0 11
 (000.000031)  can0  778   [8]  76 EF C1 20 21 A1 B0 11
 (000.200060)  can0  378   [8]  D8 DE 68 69 26 16 5B 62
 (000.000033)  can0  378   [8]  D8 DE 68 69 26 16 5B 62
 (000.200144)  can0  38C   [8]  E1 F1 69 59 C7 0A A3 43
 (000.000052)  can0  38C   [8]  E1 F1 69 59 C7 0A A3 43
 (000.200064)  can0  2FB   [8]  5A B7 28 05 E4 1B CF 0E
 (000.000049)  can0  2FB   [8]  5A B7 28 05 E4 1B CF 0E
 (000.200063)  can0  38E   [8]  BD 9F 97 64 EE 41 AE 1D
 (000.000045)  can0  38E   [8]  BD 9F 97 64 EE 41 AE 1D
 (000.200064)  can0  35C   [7]  C1 E0 B6 75 FD 4F 4E
 (000.000044)  can0  35C   [7]  C1 E0 B6 75 FD 4F 4E
 (000.199945)  can0  573   [0] 
 (000.000044)  can0  573   [0] 
 (000.200144)  can0  600   [2]  E6 97
 (000.000061)  can0  600   [2]  E6 97
 (000.200148)  can0  600   [8]  99 E6 82 40 79 C1 B2 4A
 (000.000046)  can0  600   [8]  99 E6 82 40 79 C1 B2 4A
 (000.200007)  can0  156   [2]  9F D7
 (000.000058)  can0  156   [2]  9F D7
 (000.200002)  can0  1A1   [0] 
 (000.000044)  can0  1A1   [0] 
 (000.200172)  can0  78F   [3]  81 28 CB
 (000.000058)  can0  78F   [3]  81 28 CB
 (000.200123)  can0  01C   [8]  0C 1D 4F 0F 79 3B 7A 72
 (000.000042)  can0  01C   [8]  0C 1D 4F 0F 79 3B 7A 72
 (000.200116)  can0  5C5   [8]  76 8B C8 69 39 CB 77 35
 (000.000055)  can0  5C5   [8]  76 8B C8 69 39 CB 77 35
 (000.199936)  can0  0DE   [0] 
 (000.000054)  can0  0DE   [0] 
 (000.200193)  can0  552   [6]  56 54 B0 35 52 EB
 (000.000059)  can0  552   [6]  56 54 B0 35 52 EB
 (000.200115)  can0  412   [8]  CB AC AD 77 68 ED 1E 0E
 (000.000060)  can0  412   [8]  CB AC AD 77 68 ED 1E 0E
 (000.200124)  can0  061   [8]  4B 6A BF 69 03 B2 13 38
 (000.000076)  can0  061   [8]  4B 6A BF 69 03 B2 13 38
 (000.199959)  can0  5EB   [4]  9F BE 0F 59
 (000.000048)  can0  5EB   [4]  9F BE 0F 59
 (000.200023)  can0  0F8   [0] 
 (000.000044)  can0  0F8   [0] 
 (000.200170)  can0  75E   [4]  8D 64 11 1A
 (000.000053)  can0  75E   [4]  8D 64 11 1A
 (000.200047)  can0  372   [3]  5D A0 0D
 (000.000055)  can0  372   [3]  5D A0 0D
 (000.200169)  can0  033   [8]  2E 93 7E 09 85 E5 63 3F
 (000.000049)  can0  033   [8]  2E 93 7E 09 85 E5 63 3F
 (000.199984)  can0  1E3   [4]  D8 D0 5E 6C
 (000.000042)  can0  1E3   [4]  D8 D0 5E 6C
 (000.200065)  can0  273   [3]  5E 7B 5B
 (000.000050)  can0  273   [3]  5E 7B 5B
 (000.200162)  can0  20E   [8]  D8 D4 94 0D F9 4F FB 33
 (000.000040)  can0  20E   [8]  D8 D4 94 0D F9 4F FB 33
 (000.200044)  can0  79D   [7]  73 C5 1E 73 95 08 8D
 (000.000038)  can0  79D   [7]  73 C5 1E 73 95 08 8D
 (000.200154)  can0  298   [8]  AA 31 24 78 F6 29 BD 0C
 (000.000083)  can0  298   [8]  AA 31 24 78 F6 29 BD 0C
 (000.200021)  can0  3B0   [7]  1A FF 52 15 22 EF 0F
 (000.000055)  can0  3B0   [7]  1A FF 52 15 22 EF 0F
 (000.200071)  can0  63B   [7]  72 73 B0 2B 6E FE 90
 (000.000049)  can0  63B   [7]  72 73 B0 2B 6E FE 90
 (000.200101)  can0  4A4   [0] 
 (000.000076)  can0  4A4   [0] 
 (000.200062)  can0  624   [8]  7D 3C FC 17 98 10 C0 29
 (000.000033)  can0  624   [8]  7D 3C FC 17 98 10 C0 29
 (000.200061)  can0  26F   [8]  6D 33 41 7F 7D 34 28 40
 (000.000027)  can0  26F   [8]  6D 33 41 7F 7D 34 28 40
 (000.200023)  can0  584   [5]  76 84 23 74 21
 (000.000031)  can0  584   [5]  76 84 23 74 21
 (000.200212)  can0  3BC   [8]  B7 7D 1D 56 54 16 FA 62
 (000.000046)  can0  3BC   [8]  B7 7D 1D 56 54 16 FA 62
 (000.199984)  can0  7F6   [1]  4B
 (000.000053)  can0  7F6   [1]  4B
 (000.200145)  can0  598   [5]  C9 D2 2B 18 D3
 (000.000050)  can0  598   [5]  C9 D2 2B 18 D3
 (000.200125)  can0  6DD   [8]  42 CA 17 1E 81 DB 68 1C
 (000.000045)  can0  6DD   [8]  42 CA 17 1E 81 DB 68 1C
 (000.200074)  can0  4DC   [6]  09 8A 28 12 00 3B
 (000.000051)  can0  4DC   [6]  09 8A 28 12 00 3B
 (000.200057)  can0  302   [6]  98 4B 29 17 71 95
 (000.000045)  can0  302   [6]  98 4B 29 17 71 95
 (000.200067)  can0  661   [5]  EF C9 E8 4F E5
 (000.000045)  can0  661   [5]  EF C9 E8 4F E5
 (000.200085)  can0  74A   [5]  06 91 7F 5A 07
 (000.000048)  can0  74A   [5]  06 91 7F 5A 07
 (000.200097)  can0  04F   [8]  5B 39 B5 79 45 F8 73 36
 (000.000041)  can0  04F   [8]  5B 39 B5 79 45 F8 73 36
 (000.200067)  can0  61E   [6]  EC DB 8F 25 B7 03
 (000.000045)  can0  61E   [6]  EC DB 8F 25 B7 03
 (000.200043)  can0  10C   [5]  8A CF DC 55 E9
 (000.000043)  can0  10C   [5]  8A CF DC 55 E9
 (000.200149)  can0  4F0   [8]  6A 73 4A 63 CC 41 A3 7A
 (000.000040)  can0  4F0   [8]  6A 73 4A 63 CC 41 A3 7A
 (000.199974)  can0  002   [3]  CD 7C 0C
 (000.000042)  can0  002   [3]  CD 7C 0C
 (000.200093)  can0  3F9   [5]  76 40 22 61 5A
 (000.000038)  can0  3F9   [5]  76 40 22 61 5A
 (000.200091)  can0  76B   [5]  3F 5E 03 67 B5
 (000.000042)  can0  76B   [5]  3F 5E 03 67 B5
 (000.200134)  can0  0CA   [6]  BC F1 9B 4F 1A F1
 (000.000050)  can0  0CA   [6]  BC F1 9B 4F 1A F1
 (000.200165)  can0  603   [8]  5F E9 D9 56 22 BC FE 70
 (000.000066)  can0  603   [8]  5F E9 D9 56 22 BC FE 70
 (000.199951)  can0  4BE   [8]  D9 BF 54 50 CA 5D 34 21
 (000.000031)  can0  4BE   [8]  D9 BF 54 50 CA 5D 34 21
 (000.199990)  can0  400   [3]  B3 F5 15
 (000.000030)  can0  400   [3]  B3 F5 15
 (000.200147)  can0  130   [8]  BD AA 60 36 32 71 27 13
 (000.000033)  can0  130   [8]  BD AA 60 36 32 71 27 13
 (000.200152)  can0  691   [8]  37 1C 89 64 8B 2A 6B 60
 (000.000047)  can0  691   [8]  37 1C 89 64 8B 2A 6B 60
 (000.200149)  can0  7F0   [8]  E5 6C 7F 72 5B 37 43 33
 (000.000070)  can0  7F0   [8]  E5 6C 7F 72 5B 37 43 33
 (000.199994)  can0  712   [5]  10 06 24 6C DC
 (000.000057)  can0  712   [5]  10 06 24 6C DC
 (000.200134)  can0  26B   [8]  F6 B0 33 0C 6E B8 25 0D
 (000.000056)  can0  26B   [8]  F6 B0 33 0C 6E B8 25 0D
 (000.200029)  can0  2E5   [6]  90 74 24 7E A3 C7
 (000.000050)  can0  2E5   [6]  90 74 24 7E A3 C7
 (000.200119)  can0  7A1   [8]  6E 25 03 59 A2 D3 9C 19
 (000.000053)  can0  7A1   [8]  6E 25 03 59 A2 D3 9C 19
 (000.199949)  can0  3CD   [1]  93
 (000.000049)  can0  3CD   [1]  93
 (000.200114)  can0  43F   [0] 
 (000.000058)  can0  43F   [0] 
 (000.200141)  can0  6DB   [6]  5C 15 B8 2D CB FE
 (000.000046)  can0  6DB   [6]  5C 15 B8 2D CB FE
 (000.199978)  can0  713   [1]  26
 (000.000042)  can0  713   [1]  26
 (000.200165)  can0  566   [6]  02 FE B0 2E D1 07
 (000.000041)  can0  566   [6]  02 FE B0 2E D1 07
 (000.200104)  can0  403   [8]  40 C0 E5 21 E8 56 03 28
 (000.000048)  can0  403   [8]  40 C0 E5 21 E8 56 03 28
 (000.200056)  can0  14E   [0] 
 (000.000047)  can0  14E   [0] 
 (000.200132)  can0  13A   [8]  92 7C 06 17 07 2D 2E 63
 (000.000045)  can0  13A   [8]  92 7C 06 17 07 2D 2E 63
 (000.200044)  can0  71B   [5]  04 1A FF 71 5B
 (000.000050)  can0  71B   [5]  04 1A FF 71 5B
 (000.199963)  can0  075   [3]  2C CE B4
 (000.000033)  can0  075   [3]  2C CE B4
 (000.200155)  can0  29A   [8]  1B AE 0E 6A AD C9 A5 66
 (000.000028)  can0  29A   [8]  1B AE 0E 6A AD C9 A5 66
 (000.200763)  can0  5C9   [1]  D3
 (000.000036)  can0  5C9   [1]  D3
 (000.200225)  can0  078   [5]  01 BB 1E 30 7B
 (000.000052)  can0  078   [5]  01 BB 1E 30 7B
 (000.200005)  can0  4CD   [1]  64
 (000.000053)  can0  4CD   [1]  64
 (000.199976)  can0  012   [0] 
 (000.000035)  can0  012   [0] 
 (000.200202)  can0  5EA   [8]  53 46 C0 43 05 6D DA 29
 (000.000031)  can0  5EA   [8]  53 46 C0 43 05 6D DA 29
 (000.200054)  can0  4C3   [7]  60 50 42 30 38 7D FD
 (000.000029)  can0  4C3   [7]  60 50 42 30 38 7D FD
 (000.200150)  can0  08A   [8]  89 2C 41 4C 24 CB 2F 64
 (000.000047)  can0  08A   [8]  89 2C 41 4C 24 CB 2F 64
 (000.200024)  can0  214   [4]  D2 94 D5 4A
 (000.000046)  can0  214   [4]  D2 94 D5 4A
 (000.200145)  can0  6E6   [5]  0E 1B 67 42 5E
 (000.000066)  can0  6E6   [5]  0E 1B 67 42 5E
